11:34:18 AM-> Modbus RTU OK  GET_MODULE_FIRMWARE,B[9600],F[N,8,1], , CmdType [100], Cmd [01 46 20 13 B8], Rec [01 46 20 A5 02 00 92 86 ]wT = 36
11:34:19 AM-> Modbus RTU OK  GET_COMMUNICATE_PARAMETER,B[9600],F[N,8,1], , CmdType [100], Cmd [01 46 05 00 E3 5D], Rec [01 46 05 00 06 00 00 00 01 00 00 E8 43 ]wT = 47
11:34:21 AM-> Modbus RTU OK  GET_MODULE_ADDRESS,B[9600],F[N,8,1], , CmdType [100], Cmd [01 03 01 E4 00 01 C5 C1], Rec [01 03 02 00 01 79 84 ]wT = 46
11:34:21 AM-> Modbus RTU OK  GET_MODBUS_MISC,B[9600],F[N,8,1], , CmdType [10], Cmd [01 46 29 D3 BE], Rec [01 46 29 00 FF 9D ]wT = 37
11:34:21 AM-> Modbus RTU OK  GET_MODBUS_DATAFORMAT,B[9600],F[N,8,1], , CmdType [10], Cmd [01 01 01 0C 00 01 3C 35], Rec [01 01 01 01 90 48 ]wT = 41
11:34:21 AM-> Modbus RTU OK  GET_RESPONSE_DELAY_TIME,B[9600],F[N,8,1], , CmdType [10], Cmd [01 46 35 D2 77], Rec [01 46 35 00 F7 5D ]wT = 38
11:34:21 AM-> Modbus RTU OK  GET_CHANNEL_ENABLE_STATUS,B[9600],F[N,8,1], , CmdType [10], Cmd [01 46 25 D3 BB], Rec [01 46 25 FF BA DD ]wT = 37
11:34:21 AM-> Modbus RTU OK  GET_CH0_INPUT_RANGE,B[9600],F[N,8,1], , CmdType [10], Cmd [01 46 07 00 00 BD 49], Rec [01 46 07 60 E2 15 ]wT = 40
11:34:21 AM-> Modbus RTU OK  GET_CH1_INPUT_RANGE,B[9600],F[N,8,1], , CmdType [10], Cmd [01 46 07 00 01 7C 89], Rec [01 46 07 60 E2 15 ]wT = 40
11:34:21 AM-> Modbus RTU OK  GET_CH2_INPUT_RANGE,B[9600],F[N,8,1], , CmdType [10], Cmd [01 46 07 00 02 3C 88], Rec [01 46 07 60 E2 15 ]wT = 40
11:34:21 AM-> Modbus RTU OK  GET_CH3_INPUT_RANGE,B[9600],F[N,8,1], , CmdType [10], Cmd [01 46 07 00 03 FD 48], Rec [01 46 07 60 E2 15 ]wT = 40
11:34:21 AM-> Modbus RTU OK  GET_CH4_INPUT_RANGE,B[9600],F[N,8,1], , CmdType [10], Cmd [01 46 07 00 04 BC 8A], Rec [01 46 07 60 E2 15 ]wT = 40
11:34:21 AM-> Modbus RTU OK  GET_CH5_INPUT_RANGE,B[9600],F[N,8,1], , CmdType [10], Cmd [01 46 07 00 05 7D 4A], Rec [01 46 07 60 E2 15 ]wT = 40
11:34:21 AM-> Modbus RTU OK  GET_CH6_INPUT_RANGE,B[9600],F[N,8,1], , CmdType [10], Cmd [01 46 07 00 06 3D 4B], Rec [01 46 07 60 E2 15 ]wT = 40
11:34:21 AM-> Modbus RTU OK  GET_CH7_INPUT_RANGE,B[9600],F[N,8,1], , CmdType [10], Cmd [01 46 07 00 07 FC 8B], Rec [01 46 07 60 E2 15 ]wT = 40
11:34:21 AM-> Modbus RTU OK  GET_CH0_TEMPERATURE_OFFSET,B[9600],F[N,8,1], , CmdType [10], Cmd [01 03 01 20 00 01 84 3C], Rec [01 03 02 00 00 B8 44 ]wT = 42
11:34:21 AM-> Modbus RTU OK  GET_CH1_TEMPERATURE_OFFSET,B[9600],F[N,8,1], , CmdType [10], Cmd [01 03 01 21 00 01 D5 FC], Rec [01 03 02 00 00 B8 44 ]wT = 47
11:34:22 AM-> Modbus RTU OK  GET_CH2_TEMPERATURE_OFFSET,B[9600],F[N,8,1], , CmdType [10], Cmd [01 03 01 22 00 01 25 FC], Rec [01 03 02 00 00 B8 44 ]wT = 42
11:34:22 AM-> Modbus RTU OK  GET_CH3_TEMPERATURE_OFFSET,B[9600],F[N,8,1], , CmdType [10], Cmd [01 03 01 23 00 01 74 3C], Rec [01 03 02 00 00 B8 44 ]wT = 42
11:34:22 AM-> Modbus RTU OK  GET_CH4_TEMPERATURE_OFFSET,B[9600],F[N,8,1], , CmdType [10], Cmd [01 03 01 24 00 01 C5 FD], Rec [01 03 02 00 00 B8 44 ]wT = 42
11:34:22 AM-> Modbus RTU OK  GET_CH5_TEMPERATURE_OFFSET,B[9600],F[N,8,1], , CmdType [10], Cmd [01 03 01 25 00 01 94 3D], Rec [01 03 02 00 00 B8 44 ]wT = 42
11:34:22 AM-> Modbus RTU OK  GET_CH6_TEMPERATURE_OFFSET,B[9600],F[N,8,1], , CmdType [10], Cmd [01 03 01 26 00 01 64 3D], Rec [01 03 02 00 00 B8 44 ]wT = 42
11:34:22 AM-> Modbus RTU OK  GET_CH7_TEMPERATURE_OFFSET,B[9600],F[N,8,1], , CmdType [10], Cmd [01 03 01 27 00 01 35 FD], Rec [01 03 02 00 00 B8 44 ]wT = 42
11:34:22 AM-> Modbus RTU OK  READ_CH0_ALARM_DO_CHANNELS,B[9600],F[N,8,1], , CmdType [-1], Cmd [01 03 02 E0 00 01 84 44], Rec [01 03 02 00 00 B8 44 ]wT = 42
11:34:22 AM-> Modbus RTU OK  READ_CH1_ALARM_DO_CHANNELS,B[9600],F[N,8,1], , CmdType [-1], Cmd [01 03 02 E1 00 01 D5 84], Rec [01 03 02 00 00 B8 44 ]wT = 42
11:34:22 AM-> Modbus RTU OK  READ_CH2_ALARM_DO_CHANNELS,B[9600],F[N,8,1], , CmdType [-1], Cmd [01 03 02 E2 00 01 25 84], Rec [01 03 02 00 00 B8 44 ]wT = 42
11:34:22 AM-> Modbus RTU OK  READ_CH3_ALARM_DO_CHANNELS,B[9600],F[N,8,1], , CmdType [-1], Cmd [01 03 02 E3 00 01 74 44], Rec [01 03 02 00 00 B8 44 ]wT = 42
11:34:22 AM-> Modbus RTU OK  READ_CH4_ALARM_DO_CHANNELS,B[9600],F[N,8,1], , CmdType [-1], Cmd [01 03 02 E4 00 01 C5 85], Rec [01 03 02 00 00 B8 44 ]wT = 42
11:34:22 AM-> Modbus RTU OK  READ_CH5_ALARM_DO_CHANNELS,B[9600],F[N,8,1], , CmdType [-1], Cmd [01 03 02 E5 00 01 94 45], Rec [01 03 02 00 00 B8 44 ]wT = 42
11:34:22 AM-> Modbus RTU OK  READ_CH0_ALARM_DO_CHANNELS,B[9600],F[N,8,1], , CmdType [-1], Cmd [01 03 02 E0 00 01 84 44], Rec [01 03 02 00 00 B8 44 ]wT = 42
11:34:22 AM-> Modbus RTU OK  READ_CH1_ALARM_DO_CHANNELS,B[9600],F[N,8,1], , CmdType [-1], Cmd [01 03 02 E1 00 01 D5 84], Rec [01 03 02 00 00 B8 44 ]wT = 42
11:34:22 AM-> Modbus RTU OK  READ_CH2_ALARM_DO_CHANNELS,B[9600],F[N,8,1], , CmdType [-1], Cmd [01 03 02 E2 00 01 25 84], Rec [01 03 02 00 00 B8 44 ]wT = 42
11:34:22 AM-> Modbus RTU OK  READ_CH3_ALARM_DO_CHANNELS,B[9600],F[N,8,1], , CmdType [-1], Cmd [01 03 02 E3 00 01 74 44], Rec [01 03 02 00 00 B8 44 ]wT = 42
11:34:22 AM-> Modbus RTU OK  READ_CH4_ALARM_DO_CHANNELS,B[9600],F[N,8,1], , CmdType [-1], Cmd [01 03 02 E4 00 01 C5 85], Rec [01 03 02 00 00 B8 44 ]wT = 42
11:34:22 AM-> Modbus RTU OK  READ_CH5_ALARM_DO_CHANNELS,B[9600],F[N,8,1], , CmdType [-1], Cmd [01 03 02 E5 00 01 94 45], Rec [01 03 02 00 00 B8 44 ]wT = 42
11:34:22 AM-> Modbus RTU OK  GET_CH0_HIGH_ALARM_ENABLE_STATUS,B[9600],F[N,8,1], , CmdType [10], Cmd [01 01 01 40 00 01 FD E2], Rec [01 01 01 00 51 88 ]wT = 41
11:34:22 AM-> Modbus RTU OK  GET_CH0_HIGH_ALARM_LIMIT,B[9600],F[N,8,1], , CmdType [10], Cmd [01 03 00 E0 00 01 85 FC], Rec [01 03 02 00 00 B8 44 ]wT = 42
11:34:22 AM-> Modbus RTU OK  GET_CH0_HIGH_ALARM_DOCH,B[9600],F[N,8,1], , CmdType [10], Cmd [01 03 01 40 00 01 84 22], Rec [01 03 02 00 00 B8 44 ]wT = 42
11:34:23 AM-> Modbus RTU OK  GET_CH1_HIGH_ALARM_ENABLE_STATUS,B[9600],F[N,8,1], , CmdType [10], Cmd [01 01 01 41 00 01 AC 22], Rec [01 01 01 00 51 88 ]wT = 48
11:34:23 AM-> Modbus RTU OK  GET_CH1_HIGH_ALARM_LIMIT,B[9600],F[N,8,1], , CmdType [10], Cmd [01 03 00 E1 00 01 D4 3C], Rec [01 03 02 00 00 B8 44 ]wT = 42
11:34:23 AM-> Modbus RTU OK  GET_CH1_HIGH_ALARM_DOCH,B[9600],F[N,8,1], , CmdType [10], Cmd [01 03 01 41 00 01 D5 E2], Rec [01 03 02 00 00 B8 44 ]wT = 42
11:34:23 AM-> Modbus RTU OK  GET_CH2_HIGH_ALARM_ENABLE_STATUS,B[9600],F[N,8,1], , CmdType [10], Cmd [01 01 01 42 00 01 5C 22], Rec [01 01 01 00 51 88 ]wT = 41
11:34:23 AM-> Modbus RTU OK  GET_CH2_HIGH_ALARM_LIMIT,B[9600],F[N,8,1], , CmdType [10], Cmd [01 03 00 E2 00 01 24 3C], Rec [01 03 02 00 00 B8 44 ]wT = 42
11:34:23 AM-> Modbus RTU OK  GET_CH2_HIGH_ALARM_DOCH,B[9600],F[N,8,1], , CmdType [10], Cmd [01 03 01 42 00 01 25 E2], Rec [01 03 02 00 00 B8 44 ]wT = 42
11:34:23 AM-> Modbus RTU OK  GET_CH3_HIGH_ALARM_ENABLE_STATUS,B[9600],F[N,8,1], , CmdType [10], Cmd [01 01 01 43 00 01 0D E2], Rec [01 01 01 00 51 88 ]wT = 41
11:34:23 AM-> Modbus RTU OK  GET_CH3_HIGH_ALARM_LIMIT,B[9600],F[N,8,1], , CmdType [10], Cmd [01 03 00 E3 00 01 75 FC], Rec [01 03 02 00 00 B8 44 ]wT = 42
11:34:23 AM-> Modbus RTU OK  GET_CH3_HIGH_ALARM_DOCH,B[9600],F[N,8,1], , CmdType [10], Cmd [01 03 01 43 00 01 74 22], Rec [01 03 02 00 00 B8 44 ]wT = 43
11:34:23 AM-> Modbus RTU OK  GET_CH4_HIGH_ALARM_ENABLE_STATUS,B[9600],F[N,8,1], , CmdType [10], Cmd [01 01 01 44 00 01 BC 23], Rec [01 01 01 00 51 88 ]wT = 41
11:34:23 AM-> Modbus RTU OK  GET_CH4_HIGH_ALARM_LIMIT,B[9600],F[N,8,1], , CmdType [10], Cmd [01 03 00 E4 00 01 C4 3D], Rec [01 03 02 00 00 B8 44 ]wT = 43
11:34:23 AM-> Modbus RTU OK  GET_CH4_HIGH_ALARM_DOCH,B[9600],F[N,8,1], , CmdType [10], Cmd [01 03 01 44 00 01 C5 E3], Rec [01 03 02 00 00 B8 44 ]wT = 42
11:34:23 AM-> Modbus RTU OK  GET_CH5_HIGH_ALARM_ENABLE_STATUS,B[9600],F[N,8,1], , CmdType [10], Cmd [01 01 01 45 00 01 ED E3], Rec [01 01 01 00 51 88 ]wT = 41
11:34:23 AM-> Modbus RTU OK  GET_CH5_HIGH_ALARM_LIMIT,B[9600],F[N,8,1], , CmdType [10], Cmd [01 03 00 E5 00 01 95 FD], Rec [01 03 02 00 00 B8 44 ]wT = 42
11:34:23 AM-> Modbus RTU OK  GET_CH5_HIGH_ALARM_DOCH,B[9600],F[N,8,1], , CmdType [10], Cmd [01 03 01 45 00 01 94 23], Rec [01 03 02 00 00 B8 44 ]wT = 42
11:34:23 AM-> Modbus RTU OK  GET_CH6_HIGH_ALARM_ENABLE_STATUS,B[9600],F[N,8,1], , CmdType [10], Cmd [01 01 01 46 00 01 1D E3], Rec [01 01 01 00 51 88 ]wT = 41
11:34:23 AM-> Modbus RTU OK  GET_CH6_HIGH_ALARM_LIMIT,B[9600],F[N,8,1], , CmdType [10], Cmd [01 03 00 E6 00 01 65 FD], Rec [01 03 02 00 00 B8 44 ]wT = 42
11:34:23 AM-> Modbus RTU OK  GET_CH6_HIGH_ALARM_DOCH,B[9600],F[N,8,1], , CmdType [10], Cmd [01 03 01 46 00 01 64 23], Rec [01 03 02 00 00 B8 44 ]wT = 42
11:34:23 AM-> Modbus RTU OK  GET_CH7_HIGH_ALARM_ENABLE_STATUS,B[9600],F[N,8,1], , CmdType [10], Cmd [01 01 01 47 00 01 4C 23], Rec [01 01 01 00 51 88 ]wT = 41
11:34:23 AM-> Modbus RTU OK  GET_CH7_HIGH_ALARM_LIMIT,B[9600],F[N,8,1], , CmdType [10], Cmd [01 03 00 E7 00 01 34 3D], Rec [01 03 02 00 00 B8 44 ]wT = 42
11:34:23 AM-> Modbus RTU OK  GET_CH7_HIGH_ALARM_DOCH,B[9600],F[N,8,1], , CmdType [10], Cmd [01 03 01 47 00 01 35 E3], Rec [01 03 02 00 00 B8 44 ]wT = 42
11:34:23 AM-> Modbus RTU OK  GET_CH0_LOW_ALARM_ENABLE_STATUS,B[9600],F[N,8,1], , CmdType [10], Cmd [01 01 01 48 00 01 7C 20], Rec [01 01 01 00 51 88 ]wT = 41
11:34:23 AM-> Modbus RTU OK  GET_CH0_LOW_ALARM_LIMIT,B[9600],F[N,8,1], , CmdType [10], Cmd [01 03 00 E8 00 01 04 3E], Rec [01 03 02 00 00 B8 44 ]wT = 42
11:34:24 AM-> Modbus RTU OK  GET_CH0_LOW_ALARM_DOCH,B[9600],F[N,8,1], , CmdType [10], Cmd [01 03 01 48 00 01 05 E0], Rec [01 03 02 00 00 B8 44 ]wT = 42
11:34:24 AM-> Modbus RTU OK  GET_CH1_LOW_ALARM_ENABLE_STATUS,B[9600],F[N,8,1], , CmdType [10], Cmd [01 01 01 49 00 01 2D E0], Rec [01 01 01 00 51 88 ]wT = 41
11:34:24 AM-> Modbus RTU OK  GET_CH1_LOW_ALARM_LIMIT,B[9600],F[N,8,1], , CmdType [10], Cmd [01 03 00 E9 00 01 55 FE], Rec [01 03 02 00 00 B8 44 ]wT = 42
11:34:24 AM-> Modbus RTU OK  GET_CH1_LOW_ALARM_DOCH,B[9600],F[N,8,1], , CmdType [10], Cmd [01 03 01 49 00 01 54 20], Rec [01 03 02 00 00 B8 44 ]wT = 49
11:34:24 AM-> Modbus RTU OK  GET_CH2_LOW_ALARM_ENABLE_STATUS,B[9600],F[N,8,1], , CmdType [10], Cmd [01 01 01 4A 00 01 DD E0], Rec [01 01 01 00 51 88 ]wT = 40
11:34:24 AM-> Modbus RTU OK  GET_CH2_LOW_ALARM_LIMIT,B[9600],F[N,8,1], , CmdType [10], Cmd [01 03 00 EA 00 01 A5 FE], Rec [01 03 02 00 00 B8 44 ]wT = 42
11:34:24 AM-> Modbus RTU OK  GET_CH2_LOW_ALARM_DOCH,B[9600],F[N,8,1], , CmdType [10], Cmd [01 03 01 4A 00 01 A4 20], Rec [01 03 02 00 00 B8 44 ]wT = 42
11:34:24 AM-> Modbus RTU OK  GET_CH3_LOW_ALARM_ENABLE_STATUS,B[9600],F[N,8,1], , CmdType [10], Cmd [01 01 01 4B 00 01 8C 20], Rec [01 01 01 00 51 88 ]wT = 41
11:34:24 AM-> Modbus RTU OK  GET_CH3_LOW_ALARM_LIMIT,B[9600],F[N,8,1], , CmdType [10], Cmd [01 03 00 EB 00 01 F4 3E], Rec [01 03 02 00 00 B8 44 ]wT = 42
11:34:24 AM-> Modbus RTU OK  GET_CH3_LOW_ALARM_DOCH,B[9600],F[N,8,1], , CmdType [10], Cmd [01 03 01 4B 00 01 F5 E0], Rec [01 03 02 00 00 B8 44 ]wT = 42
11:34:24 AM-> Modbus RTU OK  GET_CH4_LOW_ALARM_ENABLE_STATUS,B[9600],F[N,8,1], , CmdType [10], Cmd [01 01 01 4C 00 01 3D E1], Rec [01 01 01 00 51 88 ]wT = 41
11:34:24 AM-> Modbus RTU OK  GET_CH4_LOW_ALARM_LIMIT,B[9600],F[N,8,1], , CmdType [10], Cmd [01 03 00 EC 00 01 45 FF], Rec [01 03 02 00 00 B8 44 ]wT = 42
11:34:24 AM-> Modbus RTU OK  GET_CH4_LOW_ALARM_DOCH,B[9600],F[N,8,1], , CmdType [10], Cmd [01 03 01 4C 00 01 44 21], Rec [01 03 02 00 00 B8 44 ]wT = 43
11:34:24 AM-> Modbus RTU OK  GET_CH5_LOW_ALARM_ENABLE_STATUS,B[9600],F[N,8,1], , CmdType [10], Cmd [01 01 01 4D 00 01 6C 21], Rec [01 01 01 00 51 88 ]wT = 41
11:34:24 AM-> Modbus RTU OK  GET_CH5_LOW_ALARM_LIMIT,B[9600],F[N,8,1], , CmdType [10], Cmd [01 03 00 ED 00 01 14 3F], Rec [01 03 02 00 00 B8 44 ]wT = 42
11:34:24 AM-> Modbus RTU OK  GET_CH5_LOW_ALARM_DOCH,B[9600],F[N,8,1], , CmdType [10], Cmd [01 03 01 4D 00 01 15 E1], Rec [01 03 02 00 00 B8 44 ]wT = 42
11:34:24 AM-> Modbus RTU OK  GET_CH6_LOW_ALARM_ENABLE_STATUS,B[9600],F[N,8,1], , CmdType [10], Cmd [01 01 01 4E 00 01 9C 21], Rec [01 01 01 00 51 88 ]wT = 40
11:34:24 AM-> Modbus RTU OK  GET_CH6_LOW_ALARM_LIMIT,B[9600],F[N,8,1], , CmdType [10], Cmd [01 03 00 EE 00 01 E4 3F], Rec [01 03 02 00 00 B8 44 ]wT = 42
11:34:24 AM-> Modbus RTU OK  GET_CH6_LOW_ALARM_DOCH,B[9600],F[N,8,1], , CmdType [10], Cmd [01 03 01 4E 00 01 E5 E1], Rec [01 03 02 00 00 B8 44 ]wT = 42
11:34:24 AM-> Modbus RTU OK  GET_CH7_LOW_ALARM_ENABLE_STATUS,B[9600],F[N,8,1], , CmdType [10], Cmd [01 01 01 4F 00 01 CD E1], Rec [01 01 01 00 51 88 ]wT = 41
11:34:24 AM-> Modbus RTU OK  GET_CH7_LOW_ALARM_LIMIT,B[9600],F[N,8,1], , CmdType [10], Cmd [01 03 00 EF 00 01 B5 FF], Rec [01 03 02 00 00 B8 44 ]wT = 42
11:34:24 AM-> Modbus RTU OK  GET_CH7_LOW_ALARM_DOCH,B[9600],F[N,8,1], , CmdType [10], Cmd [01 03 01 4F 00 01 B4 21], Rec [01 03 02 00 00 B8 44 ]wT = 42
11:34:25 AM-> Modbus RTU OK  READ_CH0_ALARM_DO_CHANNELS,B[9600],F[N,8,1], , CmdType [-1], Cmd [01 03 02 E0 00 01 84 44], Rec [01 03 02 00 00 B8 44 ]wT = 42
11:34:25 AM-> Modbus RTU OK  READ_CH1_ALARM_DO_CHANNELS,B[9600],F[N,8,1], , CmdType [-1], Cmd [01 03 02 E1 00 01 D5 84], Rec [01 03 02 00 00 B8 44 ]wT = 42
11:34:25 AM-> Modbus RTU OK  READ_CH2_ALARM_DO_CHANNELS,B[9600],F[N,8,1], , CmdType [-1], Cmd [01 03 02 E2 00 01 25 84], Rec [01 03 02 00 00 B8 44 ]wT = 42
11:34:25 AM-> Modbus RTU OK  READ_CH3_ALARM_DO_CHANNELS,B[9600],F[N,8,1], , CmdType [-1], Cmd [01 03 02 E3 00 01 74 44], Rec [01 03 02 00 00 B8 44 ]wT = 42
11:34:25 AM-> Modbus RTU OK  READ_CH4_ALARM_DO_CHANNELS,B[9600],F[N,8,1], , CmdType [-1], Cmd [01 03 02 E4 00 01 C5 85], Rec [01 03 02 00 00 B8 44 ]wT = 42
11:34:25 AM-> Modbus RTU OK  READ_CH5_ALARM_DO_CHANNELS,B[9600],F[N,8,1], , CmdType [-1], Cmd [01 03 02 E5 00 01 94 45], Rec [01 03 02 00 00 B8 44 ]wT = 42
11:34:25 AM-> Modbus RTU OK  GET_WDT_TIMER,B[9600],F[N,8,1], , CmdType [10], Cmd [01 03 01 E8 00 01 05 C2], Rec [01 03 02 00 00 B8 44 ]wT = 42
11:34:25 AM-> Modbus RTU OK  GET_WDT_ENABLE,B[9600],F[N,8,1], , CmdType [10], Cmd [01 01 01 04 00 01 BD F7], Rec [01 01 01 00 51 88 ]wT = 41
11:34:25 AM-> Modbus RTU OK  GET_WDT_OVERWRITE,B[9600],F[N,8,1], , CmdType [10], Cmd [01 01 01 03 00 01 0C 36], Rec [01 01 01 00 51 88 ]wT = 41
11:34:25 AM-> Modbus RTU OK  GET_MODULE_ADDRESS,B[9600],F[N,8,1], , CmdType [100], Cmd [01 03 01 E4 00 01 C5 C1], Rec [01 03 02 00 01 79 84 ]wT = 42
11:34:25 AM-> Modbus RTU OK  GET_MODBUS_MISC,B[9600],F[N,8,1], , CmdType [10], Cmd [01 46 29 D3 BE], Rec [01 46 29 00 FF 9D ]wT = 38
11:34:25 AM-> Modbus RTU OK  GET_MODBUS_DATAFORMAT,B[9600],F[N,8,1], , CmdType [10], Cmd [01 01 01 0C 00 01 3C 35], Rec [01 01 01 01 90 48 ]wT = 41
11:34:25 AM-> Modbus RTU OK  GET_RESPONSE_DELAY_TIME,B[9600],F[N,8,1], , CmdType [10], Cmd [01 46 35 D2 77], Rec [01 46 35 00 F7 5D ]wT = 38
11:34:25 AM-> Modbus RTU OK  GET_TEMPERATURE_DISPLAY_FORMAT,B[9600],F[N,8,1], , CmdType [10], Cmd [01 01 01 0A 00 01 DC 34], Rec [01 01 01 01 90 48 ]wT = 41
11:34:25 AM-> Modbus RTU OK  GET_USER_DEFINED_TYPE_A,B[9600],F[N,8,1], , CmdType [10], Cmd [01 03 03 00 00 02 C4 4F], Rec [01 03 04 FF FF FF FF FB A7 ]wT = 45
11:34:25 AM-> Modbus RTU OK  GET_USER_DEFINED_TYPE_B,B[9600],F[N,8,1], , CmdType [10], Cmd [01 03 03 20 00 02 C5 85], Rec [01 03 04 FF FF FF FF FB A7 ]wT = 44
11:34:25 AM-> Modbus RTU OK  GET_USER_DEFINED_TYPE_C,B[9600],F[N,8,1], , CmdType [10], Cmd [01 03 03 40 00 02 C5 9B], Rec [01 03 04 FF FF FF FF FB A7 ]wT = 45
11:34:25 AM-> Modbus RTU OK  READ_CH0_AI,B[9600],F[N,8,1], , CmdType [-1], Cmd [01 04 00 00 00 01 31 CA], Rec [01 04 02 1D 9E 31 C8 ]wT = 42
11:34:25 AM-> Modbus RTU OK  READ_CH1_AI,B[9600],F[N,8,1], , CmdType [-1], Cmd [01 04 00 01 00 01 60 0A], Rec [01 04 02 80 00 D8 F0 ]wT = 42
11:34:26 AM-> Modbus RTU OK  READ_CH2_AI,B[9600],F[N,8,1], , CmdType [-1], Cmd [01 04 00 02 00 01 90 0A], Rec [01 04 02 80 00 D8 F0 ]wT = 42
11:34:26 AM-> Modbus RTU OK  READ_CH3_AI,B[9600],F[N,8,1], , CmdType [-1], Cmd [01 04 00 03 00 01 C1 CA], Rec [01 04 02 80 00 D8 F0 ]wT = 42
11:34:26 AM-> Modbus RTU OK  READ_CH4_AI,B[9600],F[N,8,1], , CmdType [-1], Cmd [01 04 00 04 00 01 70 0B], Rec [01 04 02 80 00 D8 F0 ]wT = 42
11:34:26 AM-> Modbus RTU OK  READ_CH5_AI,B[9600],F[N,8,1], , CmdType [-1], Cmd [01 04 00 05 00 01 21 CB], Rec [01 04 02 80 00 D8 F0 ]wT = 42
11:34:26 AM-> Modbus RTU OK  READ_CH6_AI,B[9600],F[N,8,1], , CmdType [-1], Cmd [01 04 00 06 00 01 D1 CB], Rec [01 04 02 80 00 D8 F0 ]wT = 42
11:34:26 AM-> Modbus RTU OK  READ_CH7_AI,B[9600],F[N,8,1], , CmdType [-1], Cmd [01 04 00 07 00 01 80 0B], Rec [01 04 02 80 00 D8 F0 ]wT = 42
11:34:26 AM-> Modbus RTU OK  READ_WDT_STATUS,B[9600],F[N,8,1], , CmdType [-1], Cmd [01 01 01 0D 00 01 6D F5], Rec [01 01 01 00 51 88 ]wT = 41
11:34:26 AM-> Modbus RTU OK  READ_MULTI_AI_DIO_STATUS,B[9600],F[N,8,1], , CmdType [-1], Cmd [01 01 00 00 00 06 BC 08], Rec [01 01 01 00 51 88 ]wT = 41
11:34:26 AM-> Modbus RTU OK  READ_CH0_ALARM_DO_ON,B[9600],F[N,8,1], , CmdType [-1], Cmd [01 03 02 C0 00 01 85 8E], Rec [01 03 02 00 00 B8 44 ]wT = 42
11:34:26 AM-> Modbus RTU OK  READ_CH1_ALARM_DO_ON,B[9600],F[N,8,1], , CmdType [-1], Cmd [01 03 02 C1 00 01 D4 4E], Rec [01 03 02 00 00 B8 44 ]wT = 42
11:34:26 AM-> Modbus RTU OK  READ_CH2_ALARM_DO_ON,B[9600],F[N,8,1], , CmdType [-1], Cmd [01 03 02 C2 00 01 24 4E], Rec [01 03 02 00 00 B8 44 ]wT = 43
11:34:26 AM-> Modbus RTU OK  READ_CH3_ALARM_DO_ON,B[9600],F[N,8,1], , CmdType [-1], Cmd [01 03 02 C3 00 01 75 8E], Rec [01 03 02 00 00 B8 44 ]wT = 42
11:34:26 AM-> Modbus RTU OK  READ_CH4_ALARM_DO_ON,B[9600],F[N,8,1], , CmdType [-1], Cmd [01 03 02 C4 00 01 C4 4F], Rec [01 03 02 00 00 B8 44 ]wT = 42
11:34:26 AM-> Modbus RTU OK  READ_CH5_ALARM_DO_ON,B[9600],F[N,8,1], , CmdType [-1], Cmd [01 03 02 C5 00 01 95 8F], Rec [01 03 02 00 00 B8 44 ]wT = 42
11:34:26 AM-> Modbus RTU OK  READ_CH0_AI,B[9600],F[N,8,1], , CmdType [-1], Cmd [01 04 00 00 00 01 31 CA], Rec [01 04 02 1D 9F F0 08 ]wT = 42
11:34:26 AM-> Modbus RTU OK  READ_CH1_AI,B[9600],F[N,8,1], , CmdType [-1], Cmd [01 04 00 01 00 01 60 0A], Rec [01 04 02 80 00 D8 F0 ]wT = 42
11:34:26 AM-> Modbus RTU OK  READ_CH2_AI,B[9600],F[N,8,1], , CmdType [-1], Cmd [01 04 00 02 00 01 90 0A], Rec [01 04 02 80 00 D8 F0 ]wT = 43
11:34:26 AM-> Modbus RTU OK  READ_CH3_AI,B[9600],F[N,8,1], , CmdType [-1], Cmd [01 04 00 03 00 01 C1 CA], Rec [01 04 02 80 00 D8 F0 ]wT = 42
11:34:26 AM-> Modbus RTU OK  READ_CH4_AI,B[9600],F[N,8,1], , CmdType [-1], Cmd [01 04 00 04 00 01 70 0B], Rec [01 04 02 80 00 D8 F0 ]wT = 42
11:34:26 AM-> Modbus RTU OK  READ_CH5_AI,B[9600],F[N,8,1], , CmdType [-1], Cmd [01 04 00 05 00 01 21 CB], Rec [01 04 02 80 00 D8 F0 ]wT = 42
11:34:26 AM-> Modbus RTU OK  READ_CH6_AI,B[9600],F[N,8,1], , CmdType [-1], Cmd [01 04 00 06 00 01 D1 CB], Rec [01 04 02 80 00 D8 F0 ]wT = 42
11:34:26 AM-> Modbus RTU OK  READ_CH7_AI,B[9600],F[N,8,1], , CmdType [-1], Cmd [01 04 00 07 00 01 80 0B], Rec [01 04 02 80 00 D8 F0 ]wT = 45
11:34:27 AM-> Modbus RTU OK  READ_WDT_STATUS,B[9600],F[N,8,1], , CmdType [-1], Cmd [01 01 01 0D 00 01 6D F5], Rec [01 01 01 00 51 88 ]wT = 41
11:34:27 AM-> Modbus RTU OK  READ_MULTI_AI_DIO_STATUS,B[9600],F[N,8,1], , CmdType [-1], Cmd [01 01 00 00 00 06 BC 08], Rec [01 01 01 00 51 88 ]wT = 41
11:34:27 AM-> Modbus RTU OK  READ_CH0_ALARM_DO_ON,B[9600],F[N,8,1], , CmdType [-1], Cmd [01 03 02 C0 00 01 85 8E], Rec [01 03 02 00 00 B8 44 ]wT = 42
11:34:27 AM-> Modbus RTU OK  READ_CH1_ALARM_DO_ON,B[9600],F[N,8,1], , CmdType [-1], Cmd [01 03 02 C1 00 01 D4 4E], Rec [01 03 02 00 00 B8 44 ]wT = 42
11:34:27 AM-> Modbus RTU OK  READ_CH2_ALARM_DO_ON,B[9600],F[N,8,1], , CmdType [-1], Cmd [01 03 02 C2 00 01 24 4E], Rec [01 03 02 00 00 B8 44 ]wT = 42
11:34:27 AM-> Modbus RTU OK  READ_CH3_ALARM_DO_ON,B[9600],F[N,8,1], , CmdType [-1], Cmd [01 03 02 C3 00 01 75 8E], Rec [01 03 02 00 00 B8 44 ]wT = 43
11:34:27 AM-> Modbus RTU OK  READ_CH4_ALARM_DO_ON,B[9600],F[N,8,1], , CmdType [-1], Cmd [01 03 02 C4 00 01 C4 4F], Rec [01 03 02 00 00 B8 44 ]wT = 42
11:34:27 AM-> Modbus RTU OK  READ_CH5_ALARM_DO_ON,B[9600],F[N,8,1], , CmdType [-1], Cmd [01 03 02 C5 00 01 95 8F], Rec [01 03 02 00 00 B8 44 ]wT = 42
11:34:27 AM-> Modbus RTU OK  READ_CH0_AI,B[9600],F[N,8,1], , CmdType [-1], Cmd [01 04 00 00 00 01 31 CA], Rec [01 04 02 1D 9F F0 08 ]wT = 42
11:34:27 AM-> Modbus RTU OK  READ_CH1_AI,B[9600],F[N,8,1], , CmdType [-1], Cmd [01 04 00 01 00 01 60 0A], Rec [01 04 02 80 00 D8 F0 ]wT = 42
11:34:27 AM-> Modbus RTU OK  READ_CH2_AI,B[9600],F[N,8,1], , CmdType [-1], Cmd [01 04 00 02 00 01 90 0A], Rec [01 04 02 80 00 D8 F0 ]wT = 42
11:34:27 AM-> Modbus RTU OK  READ_CH3_AI,B[9600],F[N,8,1], , CmdType [-1], Cmd [01 04 00 03 00 01 C1 CA], Rec [01 04 02 80 00 D8 F0 ]wT = 42
11:34:27 AM-> Modbus RTU OK  READ_CH4_AI,B[9600],F[N,8,1], , CmdType [-1], Cmd [01 04 00 04 00 01 70 0B], Rec [01 04 02 80 00 D8 F0 ]wT = 42
11:34:27 AM-> Modbus RTU OK  READ_CH5_AI,B[9600],F[N,8,1], , CmdType [-1], Cmd [01 04 00 05 00 01 21 CB], Rec [01 04 02 80 00 D8 F0 ]wT = 42
11:34:27 AM-> Modbus RTU OK  READ_CH6_AI,B[9600],F[N,8,1], , CmdType [-1], Cmd [01 04 00 06 00 01 D1 CB], Rec [01 04 02 80 00 D8 F0 ]wT = 42
11:34:27 AM-> Modbus RTU OK  READ_CH7_AI,B[9600],F[N,8,1], , CmdType [-1], Cmd [01 04 00 07 00 01 80 0B], Rec [01 04 02 80 00 D8 F0 ]wT = 42
11:34:27 AM-> Modbus RTU OK  READ_WDT_STATUS,B[9600],F[N,8,1], , CmdType [-1], Cmd [01 01 01 0D 00 01 6D F5], Rec [01 01 01 00 51 88 ]wT = 41
11:34:27 AM-> Modbus RTU OK  READ_MULTI_AI_DIO_STATUS,B[9600],F[N,8,1], , CmdType [-1], Cmd [01 01 00 00 00 06 BC 08], Rec [01 01 01 00 51 88 ]wT = 41
11:34:27 AM-> Modbus RTU OK  READ_CH0_ALARM_DO_ON,B[9600],F[N,8,1], , CmdType [-1], Cmd [01 03 02 C0 00 01 85 8E], Rec [01 03 02 00 00 B8 44 ]wT = 42
11:34:27 AM-> Modbus RTU OK  READ_CH1_ALARM_DO_ON,B[9600],F[N,8,1], , CmdType [-1], Cmd [01 03 02 C1 00 01 D4 4E], Rec [01 03 02 00 00 B8 44 ]wT = 46
11:34:27 AM-> Modbus RTU OK  READ_CH2_ALARM_DO_ON,B[9600],F[N,8,1], , CmdType [-1], Cmd [01 03 02 C2 00 01 24 4E], Rec [01 03 02 00 00 B8 44 ]wT = 43
11:34:27 AM-> Modbus RTU OK  READ_CH3_ALARM_DO_ON,B[9600],F[N,8,1], , CmdType [-1], Cmd [01 03 02 C3 00 01 75 8E], Rec [01 03 02 00 00 B8 44 ]wT = 42
11:34:28 AM-> Modbus RTU OK  READ_CH4_ALARM_DO_ON,B[9600],F[N,8,1], , CmdType [-1], Cmd [01 03 02 C4 00 01 C4 4F], Rec [01 03 02 00 00 B8 44 ]wT = 42
11:34:28 AM-> Modbus RTU OK  READ_CH5_ALARM_DO_ON,B[9600],F[N,8,1], , CmdType [-1], Cmd [01 03 02 C5 00 01 95 8F], Rec [01 03 02 00 00 B8 44 ]wT = 42
11:34:28 AM-> Modbus RTU OK  READ_CH0_AI,B[9600],F[N,8,1], , CmdType [-1], Cmd [01 04 00 00 00 01 31 CA], Rec [01 04 02 1D A0 B0 18 ]wT = 42
11:34:28 AM-> Modbus RTU OK  READ_CH1_AI,B[9600],F[N,8,1], , CmdType [-1], Cmd [01 04 00 01 00 01 60 0A], Rec [01 04 02 80 00 D8 F0 ]wT = 42
11:34:28 AM-> Modbus RTU OK  READ_CH2_AI,B[9600],F[N,8,1], , CmdType [-1], Cmd [01 04 00 02 00 01 90 0A], Rec [01 04 02 80 00 D8 F0 ]wT = 42
11:34:28 AM-> Modbus RTU OK  READ_CH3_AI,B[9600],F[N,8,1], , CmdType [-1], Cmd [01 04 00 03 00 01 C1 CA], Rec [01 04 02 80 00 D8 F0 ]wT = 42
11:34:29 AM-> Modbus RTU OK  READ_CH4_AI,B[9600],F[N,8,1], , CmdType [-1], Cmd [01 04 00 04 00 01 70 0B], Rec [01 04 02 80 00 D8 F0 ]wT = 42
11:34:29 AM-> Modbus RTU OK  READ_CH5_AI,B[9600],F[N,8,1], , CmdType [-1], Cmd [01 04 00 05 00 01 21 CB], Rec [01 04 02 80 00 D8 F0 ]wT = 42
11:34:29 AM-> Modbus RTU OK  READ_CH6_AI,B[9600],F[N,8,1], , CmdType [-1], Cmd [01 04 00 06 00 01 D1 CB], Rec [01 04 02 80 00 D8 F0 ]wT = 42
11:34:29 AM-> Modbus RTU OK  READ_CH7_AI,B[9600],F[N,8,1], , CmdType [-1], Cmd [01 04 00 07 00 01 80 0B], Rec [01 04 02 80 00 D8 F0 ]wT = 42
11:34:29 AM-> Modbus RTU OK  READ_WDT_STATUS,B[9600],F[N,8,1], , CmdType [-1], Cmd [01 01 01 0D 00 01 6D F5], Rec [01 01 01 00 51 88 ]wT = 41
11:34:29 AM-> Modbus RTU OK  READ_MULTI_AI_DIO_STATUS,B[9600],F[N,8,1], , CmdType [-1], Cmd [01 01 00 00 00 06 BC 08], Rec [01 01 01 00 51 88 ]wT = 41
11:34:29 AM-> Modbus RTU OK  READ_CH0_ALARM_DO_ON,B[9600],F[N,8,1], , CmdType [-1], Cmd [01 03 02 C0 00 01 85 8E], Rec [01 03 02 00 00 B8 44 ]wT = 42
11:34:29 AM-> Modbus RTU OK  READ_CH1_ALARM_DO_ON,B[9600],F[N,8,1], , CmdType [-1], Cmd [01 03 02 C1 00 01 D4 4E], Rec [01 03 02 00 00 B8 44 ]wT = 42
11:34:29 AM-> Modbus RTU OK  READ_CH2_ALARM_DO_ON,B[9600],F[N,8,1], , CmdType [-1], Cmd [01 03 02 C2 00 01 24 4E], Rec [01 03 02 00 00 B8 44 ]wT = 42
11:34:29 AM-> Modbus RTU OK  READ_CH3_ALARM_DO_ON,B[9600],F[N,8,1], , CmdType [-1], Cmd [01 03 02 C3 00 01 75 8E], Rec [01 03 02 00 00 B8 44 ]wT = 42
11:34:29 AM-> Modbus RTU OK  READ_CH4_ALARM_DO_ON,B[9600],F[N,8,1], , CmdType [-1], Cmd [01 03 02 C4 00 01 C4 4F], Rec [01 03 02 00 00 B8 44 ]wT = 42
11:34:29 AM-> Modbus RTU OK  READ_CH5_ALARM_DO_ON,B[9600],F[N,8,1], , CmdType [-1], Cmd [01 03 02 C5 00 01 95 8F], Rec [01 03 02 00 00 B8 44 ]wT = 42
11:34:29 AM-> Modbus RTU OK  READ_CH0_AI,B[9600],F[N,8,1], , CmdType [-1], Cmd [01 04 00 00 00 01 31 CA], Rec [01 04 02 1D A0 B0 18 ]wT = 45
11:34:29 AM-> Modbus RTU OK  READ_CH1_AI,B[9600],F[N,8,1], , CmdType [-1], Cmd [01 04 00 01 00 01 60 0A], Rec [01 04 02 80 00 D8 F0 ]wT = 42
11:34:29 AM-> Modbus RTU OK  READ_CH2_AI,B[9600],F[N,8,1], , CmdType [-1], Cmd [01 04 00 02 00 01 90 0A], Rec [01 04 02 80 00 D8 F0 ]wT = 42
