3:16:41 PM-> Modbus RTU OK  GET_MODULE_FIRMWARE,B[115200],F[N,8,1], , CmdType [100], Cmd [01 46 20 13 B8], Rec [01 46 20 A1 01 00 D3 B7 ]wT = 8
3:16:41 PM-> Modbus RTU OK  GET_COMMUNICATE_PARAMETER,B[115200],F[N,8,1], , CmdType [100], Cmd [01 46 05 00 E3 5D], Rec [01 46 05 00 0A 00 00 00 01 00 00 24 43 ]wT = 9
3:16:43 PM-> Modbus RTU OK  GET_MODULE_ADDRESS,B[115200],F[N,8,1], , CmdType [100], Cmd [01 03 01 E4 00 01 C5 C1], Rec [01 03 02 00 01 79 84 ]wT = 8
3:16:43 PM-> Modbus RTU OK  GET_MODBUS_MISC,B[115200],F[N,8,1], , CmdType [10], Cmd [01 46 29 D3 BE], Rec [01 46 29 00 FF 9D ]wT = 8
3:16:43 PM-> Modbus RTU OK  GET_MODBUS_DATAFORMAT,B[115200],F[N,8,1], , CmdType [10], Cmd [01 01 01 0C 00 01 3C 35], Rec [01 01 01 01 90 48 ]wT = 8
3:16:43 PM-> Modbus RTU OK  GET_RESPONSE_DELAY_TIME,B[115200],F[N,8,1], , CmdType [10], Cmd [01 46 35 D2 77], Rec [01 46 35 00 F7 5D ]wT = 8
3:16:43 PM-> Modbus RTU OK  GET_MODULE_ADDRESS,B[115200],F[N,8,1], , CmdType [100], Cmd [01 03 01 E4 00 01 C5 C1], Rec [01 03 02 00 01 79 84 ]wT = 8
3:16:43 PM-> Modbus RTU OK  GET_MODBUS_MISC,B[115200],F[N,8,1], , CmdType [10], Cmd [01 46 29 D3 BE], Rec [01 46 29 00 FF 9D ]wT = 8
3:16:43 PM-> Modbus RTU OK  GET_MODBUS_DATAFORMAT,B[115200],F[N,8,1], , CmdType [10], Cmd [01 01 01 0C 00 01 3C 35], Rec [01 01 01 01 90 48 ]wT = 8
3:16:43 PM-> Modbus RTU OK  GET_RESPONSE_DELAY_TIME,B[115200],F[N,8,1], , CmdType [10], Cmd [01 46 35 D2 77], Rec [01 46 35 00 F7 5D ]wT = 8
3:16:44 PM-> Modbus RTU OK  GET_WDT_TIMER,B[115200],F[N,8,1], , CmdType [10], Cmd [01 03 01 E8 00 01 05 C2], Rec [01 03 02 00 FA 38 07 ]wT = 8
3:16:44 PM-> Modbus RTU OK  GET_WDT_ENABLE,B[115200],F[N,8,1], , CmdType [10], Cmd [01 01 01 04 00 01 BD F7], Rec [01 01 01 00 51 88 ]wT = 8
3:16:44 PM-> Modbus RTU OK  GET_WDT_OVERWRITE,B[115200],F[N,8,1], , CmdType [10], Cmd [01 01 01 03 00 01 0C 36], Rec [01 01 01 00 51 88 ]wT = 8
3:16:44 PM-> Modbus RTU OK  READ_CH0_LAST_AO,B[115200],F[N,8,1], , CmdType [-1], Cmd [01 03 00 20 00 01 85 C0], Rec [01 03 02 0F A0 BD CC ]wT = 8
3:16:44 PM-> Modbus RTU OK  READ_CH1_LAST_AO,B[115200],F[N,8,1], , CmdType [-1], Cmd [01 03 00 21 00 01 D4 00], Rec [01 03 02 00 00 B8 44 ]wT = 8
3:16:44 PM-> Modbus RTU OK  READ_CH2_LAST_AO,B[115200],F[N,8,1], , CmdType [-1], Cmd [01 03 00 22 00 01 24 00], Rec [01 03 02 00 00 B8 44 ]wT = 8
3:16:44 PM-> Modbus RTU OK  READ_CH3_LAST_AO,B[115200],F[N,8,1], , CmdType [-1], Cmd [01 03 00 23 00 01 75 C0], Rec [01 03 02 00 00 B8 44 ]wT = 8
3:16:44 PM-> Modbus RTU OK  READ_CH4_LAST_AO,B[115200],F[N,8,1], , CmdType [-1], Cmd [01 03 00 24 00 01 C4 01], Rec [01 03 02 00 00 B8 44 ]wT = 8
3:16:44 PM-> Modbus RTU OK  READ_CH5_LAST_AO,B[115200],F[N,8,1], , CmdType [-1], Cmd [01 03 00 25 00 01 95 C1], Rec [01 03 02 00 00 B8 44 ]wT = 9
3:16:44 PM-> Modbus RTU OK  READ_CH6_LAST_AO,B[115200],F[N,8,1], , CmdType [-1], Cmd [01 03 00 26 00 01 65 C1], Rec [01 03 02 00 00 B8 44 ]wT = 8
3:16:44 PM-> Modbus RTU OK  READ_CH7_LAST_AO,B[115200],F[N,8,1], , CmdType [-1], Cmd [01 03 00 27 00 01 34 01], Rec [01 03 02 00 00 B8 44 ]wT = 9
3:16:44 PM-> Modbus RTU OK  READ_CH8_LAST_AO,B[115200],F[N,8,1], , CmdType [-1], Cmd [01 03 00 28 00 01 04 02], Rec [01 03 02 00 00 B8 44 ]wT = 8
3:16:44 PM-> Modbus RTU OK  READ_CH9_LAST_AO,B[115200],F[N,8,1], , CmdType [-1], Cmd [01 03 00 29 00 01 55 C2], Rec [01 03 02 00 00 B8 44 ]wT = 8
3:16:44 PM-> Modbus RTU OK  READ_CH10_LAST_AO,B[115200],F[N,8,1], , CmdType [-1], Cmd [01 03 00 2A 00 01 A5 C2], Rec [01 03 02 00 00 B8 44 ]wT = 8
3:16:44 PM-> Modbus RTU OK  READ_CH11_LAST_AO,B[115200],F[N,8,1], , CmdType [-1], Cmd [01 03 00 2B 00 01 F4 02], Rec [01 03 02 00 00 B8 44 ]wT = 8
3:16:44 PM-> Modbus RTU OK  READ_CH12_LAST_AO,B[115200],F[N,8,1], , CmdType [-1], Cmd [01 03 00 2C 00 01 45 C3], Rec [01 03 02 00 00 B8 44 ]wT = 9
3:16:44 PM-> Modbus RTU OK  READ_CH13_LAST_AO,B[115200],F[N,8,1], , CmdType [-1], Cmd [01 03 00 2D 00 01 14 03], Rec [01 03 02 00 00 B8 44 ]wT = 8
3:16:44 PM-> Modbus RTU OK  READ_CH14_LAST_AO,B[115200],F[N,8,1], , CmdType [-1], Cmd [01 03 00 2E 00 01 E4 03], Rec [01 03 02 00 00 B8 44 ]wT = 8
3:16:44 PM-> Modbus RTU OK  READ_CH15_LAST_AO,B[115200],F[N,8,1], , CmdType [-1], Cmd [01 03 00 2F 00 01 B5 C3], Rec [01 03 02 00 00 B8 44 ]wT = 8
3:16:44 PM-> Modbus RTU OK  GET_CHANNEL_ENABLE_STATUS,B[115200],F[N,8,1], , CmdType [10], Cmd [01 46 25 D3 BB], Rec [01 46 25 FF FF 1C F3 ]wT = 8
3:16:44 PM-> Modbus RTU OK  GET_CH0_INPUT_RANGE,B[115200],F[N,8,1], , CmdType [10], Cmd [01 03 01 00 00 01 85 F6], Rec [01 03 02 00 2A 39 9B ]wT = 8
3:16:44 PM-> Modbus RTU OK  GET_CH0_TEMPERATURE_OFFSET,B[115200],F[N,8,1], , CmdType [10], Cmd [01 03 01 C0 00 01 85 CA], Rec [01 03 02 00 03 F8 45 ]wT = 8
3:16:44 PM-> Modbus RTU OK  GET_CH0_AO_TYPE_CODE,B[115200],F[N,8,1], , CmdType [10], Cmd [01 03 01 A0 00 01 85 D4], Rec [01 03 02 00 01 79 84 ]wT = 8
3:16:44 PM-> Modbus RTU OK  GET_CH0_AO_SLEW_RATE,B[115200],F[N,8,1], , CmdType [10], Cmd [01 03 01 20 00 01 84 3C], Rec [01 03 02 00 00 B8 44 ]wT = 8
3:16:44 PM-> Modbus RTU OK  GET_CH1_INPUT_RANGE,B[115200],F[N,8,1], , CmdType [10], Cmd [01 03 01 01 00 01 D4 36], Rec [01 03 02 00 2A 39 9B ]wT = 8
3:16:44 PM-> Modbus RTU OK  GET_CH1_TEMPERATURE_OFFSET,B[115200],F[N,8,1], , CmdType [10], Cmd [01 03 01 C1 00 01 D4 0A], Rec [01 03 02 00 00 B8 44 ]wT = 8
3:16:44 PM-> Modbus RTU OK  GET_CH1_AO_TYPE_CODE,B[115200],F[N,8,1], , CmdType [10], Cmd [01 03 01 A1 00 01 D4 14], Rec [01 03 02 00 00 B8 44 ]wT = 8
3:16:44 PM-> Modbus RTU OK  GET_CH1_AO_SLEW_RATE,B[115200],F[N,8,1], , CmdType [10], Cmd [01 03 01 21 00 01 D5 FC], Rec [01 03 02 00 00 B8 44 ]wT = 8
3:16:44 PM-> Modbus RTU OK  GET_CH2_INPUT_RANGE,B[115200],F[N,8,1], , CmdType [10], Cmd [01 03 01 02 00 01 24 36], Rec [01 03 02 00 2A 39 9B ]wT = 8
3:16:44 PM-> Modbus RTU OK  GET_CH2_TEMPERATURE_OFFSET,B[115200],F[N,8,1], , CmdType [10], Cmd [01 03 01 C2 00 01 24 0A], Rec [01 03 02 00 01 79 84 ]wT = 8
3:16:44 PM-> Modbus RTU OK  GET_CH2_AO_TYPE_CODE,B[115200],F[N,8,1], , CmdType [10], Cmd [01 03 01 A2 00 01 24 14], Rec [01 03 02 00 02 39 85 ]wT = 8
3:16:44 PM-> Modbus RTU OK  GET_CH2_AO_SLEW_RATE,B[115200],F[N,8,1], , CmdType [10], Cmd [01 03 01 22 00 01 25 FC], Rec [01 03 02 00 00 B8 44 ]wT = 8
3:16:44 PM-> Modbus RTU OK  GET_CH3_INPUT_RANGE,B[115200],F[N,8,1], , CmdType [10], Cmd [01 03 01 03 00 01 75 F6], Rec [01 03 02 00 2A 39 9B ]wT = 8
3:16:44 PM-> Modbus RTU OK  GET_CH3_TEMPERATURE_OFFSET,B[115200],F[N,8,1], , CmdType [10], Cmd [01 03 01 C3 00 01 75 CA], Rec [01 03 02 00 01 79 84 ]wT = 8
3:16:44 PM-> Modbus RTU OK  GET_CH3_AO_TYPE_CODE,B[115200],F[N,8,1], , CmdType [10], Cmd [01 03 01 A3 00 01 75 D4], Rec [01 03 02 00 02 39 85 ]wT = 8
3:16:44 PM-> Modbus RTU OK  GET_CH3_AO_SLEW_RATE,B[115200],F[N,8,1], , CmdType [10], Cmd [01 03 01 23 00 01 74 3C], Rec [01 03 02 00 01 79 84 ]wT = 8
3:16:44 PM-> Modbus RTU OK  GET_CH4_INPUT_RANGE,B[115200],F[N,8,1], , CmdType [10], Cmd [01 03 01 04 00 01 C4 37], Rec [01 03 02 00 2A 39 9B ]wT = 8
3:16:44 PM-> Modbus RTU OK  GET_CH4_TEMPERATURE_OFFSET,B[115200],F[N,8,1], , CmdType [10], Cmd [01 03 01 C4 00 01 C4 0B], Rec [01 03 02 00 01 79 84 ]wT = 8
3:16:44 PM-> Modbus RTU OK  GET_CH4_AO_TYPE_CODE,B[115200],F[N,8,1], , CmdType [10], Cmd [01 03 01 A4 00 01 C4 15], Rec [01 03 02 00 02 39 85 ]wT = 8
3:16:44 PM-> Modbus RTU OK  GET_CH4_AO_SLEW_RATE,B[115200],F[N,8,1], , CmdType [10], Cmd [01 03 01 24 00 01 C5 FD], Rec [01 03 02 00 01 79 84 ]wT = 8
3:16:44 PM-> Modbus RTU OK  GET_CH5_INPUT_RANGE,B[115200],F[N,8,1], , CmdType [10], Cmd [01 03 01 05 00 01 95 F7], Rec [01 03 02 00 2A 39 9B ]wT = 8
3:16:44 PM-> Modbus RTU OK  GET_CH5_TEMPERATURE_OFFSET,B[115200],F[N,8,1], , CmdType [10], Cmd [01 03 01 C5 00 01 95 CB], Rec [01 03 02 00 01 79 84 ]wT = 8
3:16:44 PM-> Modbus RTU OK  GET_CH5_AO_TYPE_CODE,B[115200],F[N,8,1], , CmdType [10], Cmd [01 03 01 A5 00 01 95 D5], Rec [01 03 02 00 02 39 85 ]wT = 8
3:16:44 PM-> Modbus RTU OK  GET_CH5_AO_SLEW_RATE,B[115200],F[N,8,1], , CmdType [10], Cmd [01 03 01 25 00 01 94 3D], Rec [01 03 02 00 01 79 84 ]wT = 8
3:16:44 PM-> Modbus RTU OK  GET_CH6_INPUT_RANGE,B[115200],F[N,8,1], , CmdType [10], Cmd [01 03 01 06 00 01 65 F7], Rec [01 03 02 00 2A 39 9B ]wT = 8
3:16:44 PM-> Modbus RTU OK  GET_CH6_TEMPERATURE_OFFSET,B[115200],F[N,8,1], , CmdType [10], Cmd [01 03 01 C6 00 01 65 CB], Rec [01 03 02 00 02 39 85 ]wT = 8
3:16:44 PM-> Modbus RTU OK  GET_CH6_AO_TYPE_CODE,B[115200],F[N,8,1], , CmdType [10], Cmd [01 03 01 A6 00 01 65 D5], Rec [01 03 02 00 02 39 85 ]wT = 8
3:16:44 PM-> Modbus RTU OK  GET_CH6_AO_SLEW_RATE,B[115200],F[N,8,1], , CmdType [10], Cmd [01 03 01 26 00 01 64 3D], Rec [01 03 02 00 01 79 84 ]wT = 8
3:16:44 PM-> Modbus RTU OK  GET_CH7_INPUT_RANGE,B[115200],F[N,8,1], , CmdType [10], Cmd [01 03 01 07 00 01 34 37], Rec [01 03 02 00 2A 39 9B ]wT = 8
3:16:44 PM-> Modbus RTU OK  GET_CH7_TEMPERATURE_OFFSET,B[115200],F[N,8,1], , CmdType [10], Cmd [01 03 01 C7 00 01 34 0B], Rec [01 03 02 00 01 79 84 ]wT = 8
3:16:44 PM-> Modbus RTU OK  GET_CH7_AO_TYPE_CODE,B[115200],F[N,8,1], , CmdType [10], Cmd [01 03 01 A7 00 01 34 15], Rec [01 03 02 00 02 39 85 ]wT = 8
3:16:44 PM-> Modbus RTU OK  GET_CH7_AO_SLEW_RATE,B[115200],F[N,8,1], , CmdType [10], Cmd [01 03 01 27 00 01 35 FD], Rec [01 03 02 00 01 79 84 ]wT = 8
3:16:44 PM-> Modbus RTU OK  GET_CH8_INPUT_RANGE,B[115200],F[N,8,1], , CmdType [10], Cmd [01 03 01 08 00 01 04 34], Rec [01 03 02 00 2A 39 9B ]wT = 8
3:16:44 PM-> Modbus RTU OK  GET_CH8_TEMPERATURE_OFFSET,B[115200],F[N,8,1], , CmdType [10], Cmd [01 03 01 C8 00 01 04 08], Rec [01 03 02 00 02 39 85 ]wT = 8
3:16:44 PM-> Modbus RTU OK  GET_CH8_AO_TYPE_CODE,B[115200],F[N,8,1], , CmdType [10], Cmd [01 03 01 A8 00 01 04 16], Rec [01 03 02 00 02 39 85 ]wT = 8
3:16:44 PM-> Modbus RTU OK  GET_CH8_AO_SLEW_RATE,B[115200],F[N,8,1], , CmdType [10], Cmd [01 03 01 28 00 01 05 FE], Rec [01 03 02 00 01 79 84 ]wT = 8
3:16:44 PM-> Modbus RTU OK  GET_CH9_INPUT_RANGE,B[115200],F[N,8,1], , CmdType [10], Cmd [01 03 01 09 00 01 55 F4], Rec [01 03 02 00 2A 39 9B ]wT = 8
3:16:44 PM-> Modbus RTU OK  GET_CH9_TEMPERATURE_OFFSET,B[115200],F[N,8,1], , CmdType [10], Cmd [01 03 01 C9 00 01 55 C8], Rec [01 03 02 00 02 39 85 ]wT = 8
3:16:44 PM-> Modbus RTU OK  GET_CH9_AO_TYPE_CODE,B[115200],F[N,8,1], , CmdType [10], Cmd [01 03 01 A9 00 01 55 D6], Rec [01 03 02 00 02 39 85 ]wT = 8
3:16:44 PM-> Modbus RTU OK  GET_CH9_AO_SLEW_RATE,B[115200],F[N,8,1], , CmdType [10], Cmd [01 03 01 29 00 01 54 3E], Rec [01 03 02 00 01 79 84 ]wT = 8
3:16:44 PM-> Modbus RTU OK  GET_CH10_INPUT_RANGE,B[115200],F[N,8,1], , CmdType [10], Cmd [01 03 01 0A 00 01 A5 F4], Rec [01 03 02 00 2A 39 9B ]wT = 8
3:16:44 PM-> Modbus RTU OK  GET_CH10_TEMPERATURE_OFFSET,B[115200],F[N,8,1], , CmdType [10], Cmd [01 03 01 CA 00 01 A5 C8], Rec [01 03 02 00 02 39 85 ]wT = 8
3:16:44 PM-> Modbus RTU OK  GET_CH10_AO_TYPE_CODE,B[115200],F[N,8,1], , CmdType [10], Cmd [01 03 01 AA 00 01 A5 D6], Rec [01 03 02 00 02 39 85 ]wT = 8
3:16:44 PM-> Modbus RTU OK  GET_CH10_AO_SLEW_RATE,B[115200],F[N,8,1], , CmdType [10], Cmd [01 03 01 2A 00 01 A4 3E], Rec [01 03 02 00 01 79 84 ]wT = 9
3:16:44 PM-> Modbus RTU OK  GET_CH11_INPUT_RANGE,B[115200],F[N,8,1], , CmdType [10], Cmd [01 03 01 0B 00 01 F4 34], Rec [01 03 02 00 2A 39 9B ]wT = 8
3:16:44 PM-> Modbus RTU OK  GET_CH11_TEMPERATURE_OFFSET,B[115200],F[N,8,1], , CmdType [10], Cmd [01 03 01 CB 00 01 F4 08], Rec [01 03 02 00 02 39 85 ]wT = 8
3:16:44 PM-> Modbus RTU OK  GET_CH11_AO_TYPE_CODE,B[115200],F[N,8,1], , CmdType [10], Cmd [01 03 01 AB 00 01 F4 16], Rec [01 03 02 00 02 39 85 ]wT = 8
3:16:45 PM-> Modbus RTU OK  GET_CH11_AO_SLEW_RATE,B[115200],F[N,8,1], , CmdType [10], Cmd [01 03 01 2B 00 01 F5 FE], Rec [01 03 02 00 01 79 84 ]wT = 8
3:16:45 PM-> Modbus RTU OK  GET_CH12_INPUT_RANGE,B[115200],F[N,8,1], , CmdType [10], Cmd [01 03 01 0C 00 01 45 F5], Rec [01 03 02 00 2A 39 9B ]wT = 8
3:16:45 PM-> Modbus RTU OK  GET_CH12_TEMPERATURE_OFFSET,B[115200],F[N,8,1], , CmdType [10], Cmd [01 03 01 CC 00 01 45 C9], Rec [01 03 02 00 02 39 85 ]wT = 8
3:16:45 PM-> Modbus RTU OK  GET_CH12_AO_TYPE_CODE,B[115200],F[N,8,1], , CmdType [10], Cmd [01 03 01 AC 00 01 45 D7], Rec [01 03 02 00 02 39 85 ]wT = 8
3:16:45 PM-> Modbus RTU OK  GET_CH12_AO_SLEW_RATE,B[115200],F[N,8,1], , CmdType [10], Cmd [01 03 01 2C 00 01 44 3F], Rec [01 03 02 00 01 79 84 ]wT = 8
3:16:45 PM-> Modbus RTU OK  GET_CH13_INPUT_RANGE,B[115200],F[N,8,1], , CmdType [10], Cmd [01 03 01 0D 00 01 14 35], Rec [01 03 02 00 2A 39 9B ]wT = 8
3:16:45 PM-> Modbus RTU OK  GET_CH13_TEMPERATURE_OFFSET,B[115200],F[N,8,1], , CmdType [10], Cmd [01 03 01 CD 00 01 14 09], Rec [01 03 02 00 02 39 85 ]wT = 8
3:16:45 PM-> Modbus RTU OK  GET_CH13_AO_TYPE_CODE,B[115200],F[N,8,1], , CmdType [10], Cmd [01 03 01 AD 00 01 14 17], Rec [01 03 02 00 02 39 85 ]wT = 8
3:16:45 PM-> Modbus RTU OK  GET_CH13_AO_SLEW_RATE,B[115200],F[N,8,1], , CmdType [10], Cmd [01 03 01 2D 00 01 15 FF], Rec [01 03 02 00 01 79 84 ]wT = 8
3:16:45 PM-> Modbus RTU OK  GET_CH14_INPUT_RANGE,B[115200],F[N,8,1], , CmdType [10], Cmd [01 03 01 0E 00 01 E4 35], Rec [01 03 02 00 2A 39 9B ]wT = 8
3:16:45 PM-> Modbus RTU OK  GET_CH14_TEMPERATURE_OFFSET,B[115200],F[N,8,1], , CmdType [10], Cmd [01 03 01 CE 00 01 E4 09], Rec [01 03 02 00 03 F8 45 ]wT = 8
3:16:45 PM-> Modbus RTU OK  GET_CH14_AO_TYPE_CODE,B[115200],F[N,8,1], , CmdType [10], Cmd [01 03 01 AE 00 01 E4 17], Rec [01 03 02 00 02 39 85 ]wT = 8
3:16:45 PM-> Modbus RTU OK  GET_CH14_AO_SLEW_RATE,B[115200],F[N,8,1], , CmdType [10], Cmd [01 03 01 2E 00 01 E5 FF], Rec [01 03 02 00 01 79 84 ]wT = 9
3:16:45 PM-> Modbus RTU OK  GET_CH15_INPUT_RANGE,B[115200],F[N,8,1], , CmdType [10], Cmd [01 03 01 0F 00 01 B5 F5], Rec [01 03 02 00 2A 39 9B ]wT = 8
3:16:45 PM-> Modbus RTU OK  GET_CH15_TEMPERATURE_OFFSET,B[115200],F[N,8,1], , CmdType [10], Cmd [01 03 01 CF 00 01 B5 C9], Rec [01 03 02 00 03 F8 45 ]wT = 8
3:16:45 PM-> Modbus RTU OK  GET_CH15_AO_TYPE_CODE,B[115200],F[N,8,1], , CmdType [10], Cmd [01 03 01 AF 00 01 B5 D7], Rec [01 03 02 00 02 39 85 ]wT = 8
3:16:45 PM-> Modbus RTU OK  GET_CH15_AO_SLEW_RATE,B[115200],F[N,8,1], , CmdType [10], Cmd [01 03 01 2F 00 01 B4 3F], Rec [01 03 02 00 01 79 84 ]wT = 8
3:16:45 PM-> Modbus RTU OK  READ_CH0_DI_COUNTER,B[115200],F[N,8,1], , CmdType [-1], Cmd [01 04 00 80 00 02 70 23], Rec [01 04 04 00 00 00 00 FB 84 ]wT = 8
3:16:45 PM-> Modbus RTU OK  READ_CH1_DI_COUNTER,B[115200],F[N,8,1], , CmdType [-1], Cmd [01 04 00 82 00 02 D1 E3], Rec [01 04 04 00 00 00 00 FB 84 ]wT = 9
3:16:45 PM-> Modbus RTU OK  READ_CH2_DI_COUNTER,B[115200],F[N,8,1], , CmdType [-1], Cmd [01 04 00 84 00 02 31 E2], Rec [01 04 04 00 00 00 00 FB 84 ]wT = 8
3:16:45 PM-> Modbus RTU OK  READ_CH3_DI_COUNTER,B[115200],F[N,8,1], , CmdType [-1], Cmd [01 04 00 86 00 02 90 22], Rec [01 04 04 00 00 00 00 FB 84 ]wT = 8
3:16:45 PM-> Modbus RTU OK  READ_CH4_DI_COUNTER,B[115200],F[N,8,1], , CmdType [-1], Cmd [01 04 00 88 00 02 F1 E1], Rec [01 04 04 00 00 00 00 FB 84 ]wT = 8
3:16:45 PM-> Modbus RTU OK  READ_CH5_DI_COUNTER,B[115200],F[N,8,1], , CmdType [-1], Cmd [01 04 00 8A 00 02 50 21], Rec [01 04 04 00 00 00 00 FB 84 ]wT = 8
3:16:45 PM-> Modbus RTU OK  READ_CH6_DI_COUNTER,B[115200],F[N,8,1], , CmdType [-1], Cmd [01 04 00 8C 00 02 B0 20], Rec [01 04 04 00 00 00 00 FB 84 ]wT = 8
3:16:45 PM-> Modbus RTU OK  READ_CH7_DI_COUNTER,B[115200],F[N,8,1], , CmdType [-1], Cmd [01 04 00 8E 00 02 11 E0], Rec [01 04 04 00 00 00 00 FB 84 ]wT = 8
3:16:45 PM-> Modbus RTU OK  READ_CH8_DI_COUNTER,B[115200],F[N,8,1], , CmdType [-1], Cmd [01 04 00 90 00 02 71 E6], Rec [01 04 04 00 00 00 00 FB 84 ]wT = 8
3:16:45 PM-> Modbus RTU OK  READ_CH9_DI_COUNTER,B[115200],F[N,8,1], , CmdType [-1], Cmd [01 04 00 92 00 02 D0 26], Rec [01 04 04 00 00 00 00 FB 84 ]wT = 8
3:16:45 PM-> Modbus RTU OK  READ_CH10_DI_COUNTER,B[115200],F[N,8,1], , CmdType [-1], Cmd [01 04 00 94 00 02 30 27], Rec [01 04 04 00 00 00 00 FB 84 ]wT = 8
3:16:45 PM-> Modbus RTU OK  READ_CH11_DI_COUNTER,B[115200],F[N,8,1], , CmdType [-1], Cmd [01 04 00 96 00 02 91 E7], Rec [01 04 04 00 00 00 00 FB 84 ]wT = 8
3:16:45 PM-> Modbus RTU OK  READ_CH12_DI_COUNTER,B[115200],F[N,8,1], , CmdType [-1], Cmd [01 04 00 98 00 02 F0 24], Rec [01 04 04 00 00 00 00 FB 84 ]wT = 9
3:16:45 PM-> Modbus RTU OK  READ_CH13_DI_COUNTER,B[115200],F[N,8,1], , CmdType [-1], Cmd [01 04 00 9A 00 02 51 E4], Rec [01 04 04 00 00 00 00 FB 84 ]wT = 8
3:16:45 PM-> Modbus RTU OK  READ_CH14_DI_COUNTER,B[115200],F[N,8,1], , CmdType [-1], Cmd [01 04 00 9C 00 02 B1 E5], Rec [01 04 04 00 00 00 00 FB 84 ]wT = 9
3:16:45 PM-> Modbus RTU OK  READ_CH15_DI_COUNTER,B[115200],F[N,8,1], , CmdType [-1], Cmd [01 04 00 9E 00 02 10 25], Rec [01 04 04 00 00 00 00 FB 84 ]wT = 8
3:16:45 PM-> Modbus RTU OK  READ_DI_HIGH_LATCH,B[115200],F[N,8,1], , CmdType [-1], Cmd [01 01 00 40 00 10 3C 12], Rec [01 01 02 00 00 B9 FC ]wT = 8
3:16:45 PM-> Modbus RTU OK  READ_DI_LOW_LATCH,B[115200],F[N,8,1], , CmdType [-1], Cmd [01 01 00 60 00 10 3D D8], Rec [01 01 02 00 00 B9 FC ]wT = 8
3:16:45 PM-> Modbus RTU OK  READ_DI,B[115200],F[N,8,1], , CmdType [-1], Cmd [01 01 00 20 00 10 3C 0C], Rec [01 01 02 00 00 B9 FC ]wT = 8
3:16:45 PM-> Modbus RTU OK  READ_CH0_AI,B[115200],F[N,8,1], , CmdType [-1], Cmd [01 04 00 00 00 01 31 CA], Rec [01 04 02 7F FF D9 40 ]wT = 8
3:16:45 PM-> Modbus RTU OK  READ_CH1_AI,B[115200],F[N,8,1], , CmdType [-1], Cmd [01 04 00 01 00 01 60 0A], Rec [01 04 02 7F FF D9 40 ]wT = 8
3:16:45 PM-> Modbus RTU OK  READ_CH2_AI,B[115200],F[N,8,1], , CmdType [-1], Cmd [01 04 00 02 00 01 90 0A], Rec [01 04 02 7F FF D9 40 ]wT = 8
3:16:45 PM-> Modbus RTU OK  READ_CH3_AI,B[115200],F[N,8,1], , CmdType [-1], Cmd [01 04 00 03 00 01 C1 CA], Rec [01 04 02 7F FF D9 40 ]wT = 8
3:16:45 PM-> Modbus RTU OK  READ_CH4_AI,B[115200],F[N,8,1], , CmdType [-1], Cmd [01 04 00 04 00 01 70 0B], Rec [01 04 02 7F FF D9 40 ]wT = 8
3:16:45 PM-> Modbus RTU OK  READ_CH5_AI,B[115200],F[N,8,1], , CmdType [-1], Cmd [01 04 00 05 00 01 21 CB], Rec [01 04 02 7F FF D9 40 ]wT = 8
3:16:45 PM-> Modbus RTU OK  READ_CH6_AI,B[115200],F[N,8,1], , CmdType [-1], Cmd [01 04 00 06 00 01 D1 CB], Rec [01 04 02 7F FF D9 40 ]wT = 8
3:16:45 PM-> Modbus RTU OK  READ_CH7_AI,B[115200],F[N,8,1], , CmdType [-1], Cmd [01 04 00 07 00 01 80 0B], Rec [01 04 02 7F FF D9 40 ]wT = 8
3:16:45 PM-> Modbus RTU OK  READ_CH8_AI,B[115200],F[N,8,1], , CmdType [-1], Cmd [01 04 00 08 00 01 B0 08], Rec [01 04 02 7F FF D9 40 ]wT = 8
3:16:45 PM-> Modbus RTU OK  READ_CH9_AI,B[115200],F[N,8,1], , CmdType [-1], Cmd [01 04 00 09 00 01 E1 C8], Rec [01 04 02 7F FF D9 40 ]wT = 8
3:16:45 PM-> Modbus RTU OK  READ_CH10_AI,B[115200],F[N,8,1], , CmdType [-1], Cmd [01 04 00 0A 00 01 11 C8], Rec [01 04 02 7F FF D9 40 ]wT = 8
3:16:45 PM-> Modbus RTU OK  READ_CH11_AI,B[115200],F[N,8,1], , CmdType [-1], Cmd [01 04 00 0B 00 01 40 08], Rec [01 04 02 7F FF D9 40 ]wT = 8
3:16:45 PM-> Modbus RTU OK  READ_CH12_AI,B[115200],F[N,8,1], , CmdType [-1], Cmd [01 04 00 0C 00 01 F1 C9], Rec [01 04 02 7F FF D9 40 ]wT = 8
3:16:45 PM-> Modbus RTU OK  READ_CH13_AI,B[115200],F[N,8,1], , CmdType [-1], Cmd [01 04 00 0D 00 01 A0 09], Rec [01 04 02 7F FF D9 40 ]wT = 8
3:16:45 PM-> Modbus RTU OK  READ_CH14_AI,B[115200],F[N,8,1], , CmdType [-1], Cmd [01 04 00 0E 00 01 50 09], Rec [01 04 02 7F FF D9 40 ]wT = 8
3:16:45 PM-> Modbus RTU OK  READ_CH15_AI,B[115200],F[N,8,1], , CmdType [-1], Cmd [01 04 00 0F 00 01 01 C9], Rec [01 04 02 7F FF D9 40 ]wT = 8
3:16:45 PM-> Modbus RTU OK  READ_CH0_AO,B[115200],F[N,8,1], , CmdType [-1], Cmd [01 03 00 40 00 01 85 DE], Rec [01 03 02 0F A0 BD CC ]wT = 8
3:16:45 PM-> Modbus RTU OK  READ_CH0_LAST_AO,B[115200],F[N,8,1], , CmdType [-1], Cmd [01 03 00 20 00 01 85 C0], Rec [01 03 02 0F A0 BD CC ]wT = 8
3:16:45 PM-> Modbus RTU OK  READ_CH1_AO,B[115200],F[N,8,1], , CmdType [-1], Cmd [01 03 00 41 00 01 D4 1E], Rec [01 03 02 00 00 B8 44 ]wT = 8
3:16:45 PM-> Modbus RTU OK  READ_CH1_LAST_AO,B[115200],F[N,8,1], , CmdType [-1], Cmd [01 03 00 21 00 01 D4 00], Rec [01 03 02 00 00 B8 44 ]wT = 8
3:16:45 PM-> Modbus RTU OK  READ_CH2_AO,B[115200],F[N,8,1], , CmdType [-1], Cmd [01 03 00 42 00 01 24 1E], Rec [01 03 02 00 00 B8 44 ]wT = 8
3:16:45 PM-> Modbus RTU OK  READ_CH2_LAST_AO,B[115200],F[N,8,1], , CmdType [-1], Cmd [01 03 00 22 00 01 24 00], Rec [01 03 02 00 00 B8 44 ]wT = 8
3:16:45 PM-> Modbus RTU OK  READ_CH3_AO,B[115200],F[N,8,1], , CmdType [-1], Cmd [01 03 00 43 00 01 75 DE], Rec [01 03 02 00 00 B8 44 ]wT = 8
3:16:45 PM-> Modbus RTU OK  READ_CH3_LAST_AO,B[115200],F[N,8,1], , CmdType [-1], Cmd [01 03 00 23 00 01 75 C0], Rec [01 03 02 00 00 B8 44 ]wT = 8
3:16:45 PM-> Modbus RTU OK  READ_CH4_AO,B[115200],F[N,8,1], , CmdType [-1], Cmd [01 03 00 44 00 01 C4 1F], Rec [01 03 02 00 00 B8 44 ]wT = 8
3:16:45 PM-> Modbus RTU OK  READ_CH4_LAST_AO,B[115200],F[N,8,1], , CmdType [-1], Cmd [01 03 00 24 00 01 C4 01], Rec [01 03 02 00 00 B8 44 ]wT = 8
3:16:45 PM-> Modbus RTU OK  READ_CH5_AO,B[115200],F[N,8,1], , CmdType [-1], Cmd [01 03 00 45 00 01 95 DF], Rec [01 03 02 00 00 B8 44 ]wT = 8
3:16:45 PM-> Modbus RTU OK  READ_CH5_LAST_AO,B[115200],F[N,8,1], , CmdType [-1], Cmd [01 03 00 25 00 01 95 C1], Rec [01 03 02 00 00 B8 44 ]wT = 8
3:16:45 PM-> Modbus RTU OK  READ_CH6_AO,B[115200],F[N,8,1], , CmdType [-1], Cmd [01 03 00 46 00 01 65 DF], Rec [01 03 02 00 00 B8 44 ]wT = 8
3:16:45 PM-> Modbus RTU OK  READ_CH6_LAST_AO,B[115200],F[N,8,1], , CmdType [-1], Cmd [01 03 00 26 00 01 65 C1], Rec [01 03 02 00 00 B8 44 ]wT = 8
3:16:45 PM-> Modbus RTU OK  READ_CH7_AO,B[115200],F[N,8,1], , CmdType [-1], Cmd [01 03 00 47 00 01 34 1F], Rec [01 03 02 00 00 B8 44 ]wT = 8
3:16:45 PM-> Modbus RTU OK  READ_CH7_LAST_AO,B[115200],F[N,8,1], , CmdType [-1], Cmd [01 03 00 27 00 01 34 01], Rec [01 03 02 00 00 B8 44 ]wT = 8
3:16:45 PM-> Modbus RTU OK  READ_CH8_AO,B[115200],F[N,8,1], , CmdType [-1], Cmd [01 03 00 48 00 01 04 1C], Rec [01 03 02 00 00 B8 44 ]wT = 8
3:16:45 PM-> Modbus RTU OK  READ_CH8_LAST_AO,B[115200],F[N,8,1], , CmdType [-1], Cmd [01 03 00 28 00 01 04 02], Rec [01 03 02 00 00 B8 44 ]wT = 8
3:16:45 PM-> Modbus RTU OK  READ_CH9_AO,B[115200],F[N,8,1], , CmdType [-1], Cmd [01 03 00 49 00 01 55 DC], Rec [01 03 02 00 00 B8 44 ]wT = 8
3:16:45 PM-> Modbus RTU OK  READ_CH9_LAST_AO,B[115200],F[N,8,1], , CmdType [-1], Cmd [01 03 00 29 00 01 55 C2], Rec [01 03 02 00 00 B8 44 ]wT = 8
3:16:45 PM-> Modbus RTU OK  READ_CH10_AO,B[115200],F[N,8,1], , CmdType [-1], Cmd [01 03 00 4A 00 01 A5 DC], Rec [01 03 02 00 00 B8 44 ]wT = 8
3:16:45 PM-> Modbus RTU OK  READ_CH10_LAST_AO,B[115200],F[N,8,1], , CmdType [-1], Cmd [01 03 00 2A 00 01 A5 C2], Rec [01 03 02 00 00 B8 44 ]wT = 8
3:16:45 PM-> Modbus RTU OK  READ_CH11_AO,B[115200],F[N,8,1], , CmdType [-1], Cmd [01 03 00 4B 00 01 F4 1C], Rec [01 03 02 00 00 B8 44 ]wT = 8
3:16:45 PM-> Modbus RTU OK  READ_CH11_LAST_AO,B[115200],F[N,8,1], , CmdType [-1], Cmd [01 03 00 2B 00 01 F4 02], Rec [01 03 02 00 00 B8 44 ]wT = 8
3:16:45 PM-> Modbus RTU OK  READ_CH12_AO,B[115200],F[N,8,1], , CmdType [-1], Cmd [01 03 00 4C 00 01 45 DD], Rec [01 03 02 00 00 B8 44 ]wT = 8
3:16:45 PM-> Modbus RTU OK  READ_CH12_LAST_AO,B[115200],F[N,8,1], , CmdType [-1], Cmd [01 03 00 2C 00 01 45 C3], Rec [01 03 02 00 00 B8 44 ]wT = 8
3:16:45 PM-> Modbus RTU OK  READ_CH13_AO,B[115200],F[N,8,1], , CmdType [-1], Cmd [01 03 00 4D 00 01 14 1D], Rec [01 03 02 00 00 B8 44 ]wT = 9
3:16:45 PM-> Modbus RTU OK  READ_CH13_LAST_AO,B[115200],F[N,8,1], , CmdType [-1], Cmd [01 03 00 2D 00 01 14 03], Rec [01 03 02 00 00 B8 44 ]wT = 8
3:16:45 PM-> Modbus RTU OK  READ_CH14_AO,B[115200],F[N,8,1], , CmdType [-1], Cmd [01 03 00 4E 00 01 E4 1D], Rec [01 03 02 00 00 B8 44 ]wT = 8
3:16:45 PM-> Modbus RTU OK  READ_CH14_LAST_AO,B[115200],F[N,8,1], , CmdType [-1], Cmd [01 03 00 2E 00 01 E4 03], Rec [01 03 02 00 00 B8 44 ]wT = 8
3:16:45 PM-> Modbus RTU OK  READ_CH15_AO,B[115200],F[N,8,1], , CmdType [-1], Cmd [01 03 00 4F 00 01 B5 DD], Rec [01 03 02 00 00 B8 44 ]wT = 8
3:16:45 PM-> Modbus RTU OK  READ_CH15_LAST_AO,B[115200],F[N,8,1], , CmdType [-1], Cmd [01 03 00 2F 00 01 B5 C3], Rec [01 03 02 00 00 B8 44 ]wT = 8
3:16:46 PM-> Modbus RTU OK  READ_CH0_DI_COUNTER,B[115200],F[N,8,1], , CmdType [-1], Cmd [01 04 00 80 00 02 70 23], Rec [01 04 04 00 00 00 00 FB 84 ]wT = 8
3:16:46 PM-> Modbus RTU OK  READ_CH1_DI_COUNTER,B[115200],F[N,8,1], , CmdType [-1], Cmd [01 04 00 82 00 02 D1 E3], Rec [01 04 04 00 00 00 00 FB 84 ]wT = 8
3:16:46 PM-> Modbus RTU OK  READ_CH2_DI_COUNTER,B[115200],F[N,8,1], , CmdType [-1], Cmd [01 04 00 84 00 02 31 E2], Rec [01 04 04 00 00 00 00 FB 84 ]wT = 8
3:16:46 PM-> Modbus RTU OK  READ_CH3_DI_COUNTER,B[115200],F[N,8,1], , CmdType [-1], Cmd [01 04 00 86 00 02 90 22], Rec [01 04 04 00 00 00 00 FB 84 ]wT = 8
3:16:46 PM-> Modbus RTU OK  READ_CH4_DI_COUNTER,B[115200],F[N,8,1], , CmdType [-1], Cmd [01 04 00 88 00 02 F1 E1], Rec [01 04 04 00 00 00 00 FB 84 ]wT = 8
3:16:46 PM-> Modbus RTU OK  READ_CH5_DI_COUNTER,B[115200],F[N,8,1], , CmdType [-1], Cmd [01 04 00 8A 00 02 50 21], Rec [01 04 04 00 00 00 00 FB 84 ]wT = 8
3:16:46 PM-> Modbus RTU OK  READ_CH6_DI_COUNTER,B[115200],F[N,8,1], , CmdType [-1], Cmd [01 04 00 8C 00 02 B0 20], Rec [01 04 04 00 00 00 00 FB 84 ]wT = 8
