16:34:01-> Modbus RTU OK  GET_MODULE_ADDRESS,B[115200],F[N,8,1], , CmdType [100], Cmd [01 03 01 E4 00 01 C5 C1], Rec [01 03 02 00 01 79 84 ]wT = 8
16:34:01-> Modbus RTU OK  GET_DL30X_TEMPERATURE_OFFSET,B[115200],F[N,8,1], , CmdType [10], Cmd [01 03 01 C0 00 01 85 CA], Rec [01 03 02 00 00 B8 44 ]wT = 8
16:34:03-> Modbus RTU OK  READ_CH0_AI,B[115200],F[N,8,1], , CmdType [-1], Cmd [01 04 00 00 00 01 31 CA], Rec [01 04 02 0A 46 3E 62 ]wT = 8
16:34:03-> Modbus RTU OK  READ_CH1_AI,B[115200],F[N,8,1], , CmdType [-1], Cmd [01 04 00 01 00 01 60 0A], Rec [01 04 02 0A 95 7F FF ]wT = 8
16:34:03-> Modbus RTU OK  READ_CH0_AI,B[115200],F[N,8,1], , CmdType [-1], Cmd [01 04 00 00 00 01 31 CA], Rec [01 04 02 0A 41 7F A0 ]wT = 8
16:34:03-> Modbus RTU OK  READ_CH1_AI,B[115200],F[N,8,1], , CmdType [-1], Cmd [01 04 00 01 00 01 60 0A], Rec [01 04 02 0A 93 FF FD ]wT = 10
16:34:04-> Modbus RTU OK  READ_CH0_AI,B[115200],F[N,8,1], , CmdType [-1], Cmd [01 04 00 00 00 01 31 CA], Rec [01 04 02 0A 46 3E 62 ]wT = 8
16:34:04-> Modbus RTU OK  READ_CH1_AI,B[115200],F[N,8,1], , CmdType [-1], Cmd [01 04 00 01 00 01 60 0A], Rec [01 04 02 0A 93 FF FD ]wT = 8
16:34:05-> Modbus RTU OK  READ_CH0_AI,B[115200],F[N,8,1], , CmdType [-1], Cmd [01 04 00 00 00 01 31 CA], Rec [01 04 02 0A 46 3E 62 ]wT = 8
16:34:05-> Modbus RTU OK  READ_CH1_AI,B[115200],F[N,8,1], , CmdType [-1], Cmd [01 04 00 01 00 01 60 0A], Rec [01 04 02 0A 95 7F FF ]wT = 8
16:34:06-> Modbus RTU OK  READ_CH0_AI,B[115200],F[N,8,1], , CmdType [-1], Cmd [01 04 00 00 00 01 31 CA], Rec [01 04 02 0A 49 7E 66 ]wT = 8
16:34:06-> Modbus RTU OK  READ_CH1_AI,B[115200],F[N,8,1], , CmdType [-1], Cmd [01 04 00 01 00 01 60 0A], Rec [01 04 02 0A 92 3E 3D ]wT = 8
16:34:07-> Modbus RTU OK  READ_CH0_AI,B[115200],F[N,8,1], , CmdType [-1], Cmd [01 04 00 00 00 01 31 CA], Rec [01 04 02 0A 44 BF A3 ]wT = 8
16:34:07-> Modbus RTU OK  READ_CH1_AI,B[115200],F[N,8,1], , CmdType [-1], Cmd [01 04 00 01 00 01 60 0A], Rec [01 04 02 0A 93 FF FD ]wT = 8
16:34:08-> Modbus RTU OK  READ_CH0_AI,B[115200],F[N,8,1], , CmdType [-1], Cmd [01 04 00 00 00 01 31 CA], Rec [01 04 02 0A 47 FF A2 ]wT = 8
16:34:08-> Modbus RTU OK  READ_CH1_AI,B[115200],F[N,8,1], , CmdType [-1], Cmd [01 04 00 01 00 01 60 0A], Rec [01 04 02 0A 92 3E 3D ]wT = 8
16:34:09-> Modbus RTU OK  READ_CH0_AI,B[115200],F[N,8,1], , CmdType [-1], Cmd [01 04 00 00 00 01 31 CA], Rec [01 04 02 0A 44 BF A3 ]wT = 8
16:34:09-> Modbus RTU OK  READ_CH1_AI,B[115200],F[N,8,1], , CmdType [-1], Cmd [01 04 00 01 00 01 60 0A], Rec [01 04 02 0A 93 FF FD ]wT = 8
16:34:10-> Modbus RTU OK  READ_CH0_AI,B[115200],F[N,8,1], , CmdType [-1], Cmd [01 04 00 00 00 01 31 CA], Rec [01 04 02 0A 44 BF A3 ]wT = 8
16:34:10-> Modbus RTU OK  READ_CH1_AI,B[115200],F[N,8,1], , CmdType [-1], Cmd [01 04 00 01 00 01 60 0A], Rec [01 04 02 0A 93 FF FD ]wT = 8
16:34:11-> Modbus RTU OK  READ_CH0_AI,B[115200],F[N,8,1], , CmdType [-1], Cmd [01 04 00 00 00 01 31 CA], Rec [01 04 02 0A 43 FE 61 ]wT = 8
16:34:11-> Modbus RTU OK  READ_CH1_AI,B[115200],F[N,8,1], , CmdType [-1], Cmd [01 04 00 01 00 01 60 0A], Rec [01 04 02 0A 93 FF FD ]wT = 8
16:34:12-> Modbus RTU OK  READ_CH0_AI,B[115200],F[N,8,1], , CmdType [-1], Cmd [01 04 00 00 00 01 31 CA], Rec [01 04 02 0A 3D 7E 41 ]wT = 8
16:34:12-> Modbus RTU OK  READ_CH1_AI,B[115200],F[N,8,1], , CmdType [-1], Cmd [01 04 00 01 00 01 60 0A], Rec [01 04 02 0A 93 FF FD ]wT = 8
16:34:13-> Modbus RTU OK  READ_CH0_AI,B[115200],F[N,8,1], , CmdType [-1], Cmd [01 04 00 00 00 01 31 CA], Rec [01 04 02 0A 3E 3E 40 ]wT = 8
16:34:13-> Modbus RTU OK  READ_CH1_AI,B[115200],F[N,8,1], , CmdType [-1], Cmd [01 04 00 01 00 01 60 0A], Rec [01 04 02 0A 95 7F FF ]wT = 8
16:34:14-> Modbus RTU OK  READ_CH0_AI,B[115200],F[N,8,1], , CmdType [-1], Cmd [01 04 00 00 00 01 31 CA], Rec [01 04 02 0A 41 7F A0 ]wT = 8
16:34:14-> Modbus RTU OK  READ_CH1_AI,B[115200],F[N,8,1], , CmdType [-1], Cmd [01 04 00 01 00 01 60 0A], Rec [01 04 02 0A 93 FF FD ]wT = 8
16:34:15-> Modbus RTU OK  READ_CH0_AI,B[115200],F[N,8,1], , CmdType [-1], Cmd [01 04 00 00 00 01 31 CA], Rec [01 04 02 0A 36 3F 86 ]wT = 8
16:34:15-> Modbus RTU OK  READ_CH1_AI,B[115200],F[N,8,1], , CmdType [-1], Cmd [01 04 00 01 00 01 60 0A], Rec [01 04 02 0A 93 FF FD ]wT = 8
16:34:16-> Modbus RTU OK  READ_CH0_AI,B[115200],F[N,8,1], , CmdType [-1], Cmd [01 04 00 00 00 01 31 CA], Rec [01 04 02 0A 3D 7E 41 ]wT = 8
16:34:16-> Modbus RTU OK  READ_CH1_AI,B[115200],F[N,8,1], , CmdType [-1], Cmd [01 04 00 01 00 01 60 0A], Rec [01 04 02 0A 95 7F FF ]wT = 8
16:34:17-> Modbus RTU OK  READ_CH0_AI,B[115200],F[N,8,1], , CmdType [-1], Cmd [01 04 00 00 00 01 31 CA], Rec [01 04 02 0A 33 FF 85 ]wT = 8
16:34:17-> Modbus RTU OK  READ_CH1_AI,B[115200],F[N,8,1], , CmdType [-1], Cmd [01 04 00 01 00 01 60 0A], Rec [01 04 02 0A 92 3E 3D ]wT = 8
16:34:18-> Modbus RTU OK  READ_CH0_AI,B[115200],F[N,8,1], , CmdType [-1], Cmd [01 04 00 00 00 01 31 CA], Rec [01 04 02 0A 33 FF 85 ]wT = 8
16:34:18-> Modbus RTU OK  READ_CH1_AI,B[115200],F[N,8,1], , CmdType [-1], Cmd [01 04 00 01 00 01 60 0A], Rec [01 04 02 0A 93 FF FD ]wT = 8
16:34:19-> Modbus RTU OK  READ_CH0_AI,B[115200],F[N,8,1], , CmdType [-1], Cmd [01 04 00 00 00 01 31 CA], Rec [01 04 02 0A 35 7F 87 ]wT = 8
16:34:19-> Modbus RTU OK  READ_CH2_AI,B[115200],F[N,8,1], , CmdType [-1], Cmd [01 04 00 02 00 01 90 0A], Rec [01 04 02 1F 88 B1 66 ]wT = 8
16:34:20-> Modbus RTU OK  READ_CH0_AI,B[115200],F[N,8,1], , CmdType [-1], Cmd [01 04 00 00 00 01 31 CA], Rec [01 04 02 0A 32 3E 45 ]wT = 8
16:34:20-> Modbus RTU OK  READ_CH2_AI,B[115200],F[N,8,1], , CmdType [-1], Cmd [01 04 00 02 00 01 90 0A], Rec [01 04 02 1F 88 B1 66 ]wT = 8
16:34:21-> Modbus RTU OK  READ_CH0_AI,B[115200],F[N,8,1], , CmdType [-1], Cmd [01 04 00 00 00 01 31 CA], Rec [01 04 02 0A 30 BF 84 ]wT = 8
16:34:21-> Modbus RTU OK  READ_CH2_AI,B[115200],F[N,8,1], , CmdType [-1], Cmd [01 04 00 02 00 01 90 0A], Rec [01 04 02 1F 8C B0 A5 ]wT = 8
16:34:22-> Modbus RTU OK  READ_CH0_AI,B[115200],F[N,8,1], , CmdType [-1], Cmd [01 04 00 00 00 01 31 CA], Rec [01 04 02 0A 2E 3F 8C ]wT = 8
16:34:22-> Modbus RTU OK  READ_CH2_AI,B[115200],F[N,8,1], , CmdType [-1], Cmd [01 04 00 02 00 01 90 0A], Rec [01 04 02 1F 88 B1 66 ]wT = 8
16:34:23-> Modbus RTU OK  READ_CH0_AI,B[115200],F[N,8,1], , CmdType [-1], Cmd [01 04 00 00 00 01 31 CA], Rec [01 04 02 0A 32 3E 45 ]wT = 8
16:34:23-> Modbus RTU OK  READ_CH1_AI,B[115200],F[N,8,1], , CmdType [-1], Cmd [01 04 00 01 00 01 60 0A], Rec [01 04 02 0A 95 7F FF ]wT = 8
16:34:24-> Modbus RTU OK  READ_CH0_AI,B[115200],F[N,8,1], , CmdType [-1], Cmd [01 04 00 00 00 01 31 CA], Rec [01 04 02 0A 2A 3E 4F ]wT = 8
16:34:24-> Modbus RTU OK  READ_CH1_AI,B[115200],F[N,8,1], , CmdType [-1], Cmd [01 04 00 01 00 01 60 0A], Rec [01 04 02 0A 95 7F FF ]wT = 8
16:34:25-> Modbus RTU OK  READ_CH0_AI,B[115200],F[N,8,1], , CmdType [-1], Cmd [01 04 00 00 00 01 31 CA], Rec [01 04 02 0A 2F FE 4C ]wT = 8
16:34:25-> Modbus RTU OK  READ_CH1_AI,B[115200],F[N,8,1], , CmdType [-1], Cmd [01 04 00 01 00 01 60 0A], Rec [01 04 02 0A 95 7F FF ]wT = 8
16:34:26-> Modbus RTU OK  READ_CH0_AI,B[115200],F[N,8,1], , CmdType [-1], Cmd [01 04 00 00 00 01 31 CA], Rec [01 04 02 0A 2B FF 8F ]wT = 8
16:34:26-> Modbus RTU OK  READ_CH1_AI,B[115200],F[N,8,1], , CmdType [-1], Cmd [01 04 00 01 00 01 60 0A], Rec [01 04 02 0A 95 7F FF ]wT = 8
16:34:27-> Modbus RTU OK  READ_CH0_AI,B[115200],F[N,8,1], , CmdType [-1], Cmd [01 04 00 00 00 01 31 CA], Rec [01 04 02 0A 2A 3E 4F ]wT = 8
16:34:27-> Modbus RTU OK  READ_CH1_AI,B[115200],F[N,8,1], , CmdType [-1], Cmd [01 04 00 01 00 01 60 0A], Rec [01 04 02 0A 95 7F FF ]wT = 8
16:34:28-> Modbus RTU OK  READ_CH0_AI,B[115200],F[N,8,1], , CmdType [-1], Cmd [01 04 00 00 00 01 31 CA], Rec [01 04 02 0A 25 7E 4B ]wT = 8
16:34:28-> Modbus RTU OK  READ_CH1_AI,B[115200],F[N,8,1], , CmdType [-1], Cmd [01 04 00 01 00 01 60 0A], Rec [01 04 02 0A 93 FF FD ]wT = 8
16:34:29-> Modbus RTU OK  READ_CH0_AI,B[115200],F[N,8,1], , CmdType [-1], Cmd [01 04 00 00 00 01 31 CA], Rec [01 04 02 0A 2A 3E 4F ]wT = 8
16:34:29-> Modbus RTU OK  READ_CH1_AI,B[115200],F[N,8,1], , CmdType [-1], Cmd [01 04 00 01 00 01 60 0A], Rec [01 04 02 0A 95 7F FF ]wT = 8
16:34:30-> Modbus RTU OK  READ_CH0_AI,B[115200],F[N,8,1], , CmdType [-1], Cmd [01 04 00 00 00 01 31 CA], Rec [01 04 02 0A 2A 3E 4F ]wT = 8
16:34:30-> Modbus RTU OK  READ_CH1_AI,B[115200],F[N,8,1], , CmdType [-1], Cmd [01 04 00 01 00 01 60 0A], Rec [01 04 02 0A 93 FF FD ]wT = 8
16:34:31-> Modbus RTU OK  READ_CH0_AI,B[115200],F[N,8,1], , CmdType [-1], Cmd [01 04 00 00 00 01 31 CA], Rec [01 04 02 0A 2A 3E 4F ]wT = 8
16:34:31-> Modbus RTU OK  READ_CH1_AI,B[115200],F[N,8,1], , CmdType [-1], Cmd [01 04 00 01 00 01 60 0A], Rec [01 04 02 0A 92 3E 3D ]wT = 9
16:34:32-> Modbus RTU OK  READ_CH0_AI,B[115200],F[N,8,1], , CmdType [-1], Cmd [01 04 00 00 00 01 31 CA], Rec [01 04 02 0A 24 BF 8B ]wT = 8
16:34:32-> Modbus RTU OK  READ_CH1_AI,B[115200],F[N,8,1], , CmdType [-1], Cmd [01 04 00 01 00 01 60 0A], Rec [01 04 02 0A 93 FF FD ]wT = 8
16:34:33-> Modbus RTU OK  READ_CH0_AI,B[115200],F[N,8,1], , CmdType [-1], Cmd [01 04 00 00 00 01 31 CA], Rec [01 04 02 0A 25 7E 4B ]wT = 8
16:34:33-> Modbus RTU OK  READ_CH1_AI,B[115200],F[N,8,1], , CmdType [-1], Cmd [01 04 00 01 00 01 60 0A], Rec [01 04 02 0A 95 7F FF ]wT = 8
16:34:34-> Modbus RTU OK  READ_CH0_AI,B[115200],F[N,8,1], , CmdType [-1], Cmd [01 04 00 00 00 01 31 CA], Rec [01 04 02 0A 26 3E 4A ]wT = 8
16:34:34-> Modbus RTU OK  READ_CH1_AI,B[115200],F[N,8,1], , CmdType [-1], Cmd [01 04 00 01 00 01 60 0A], Rec [01 04 02 0A 92 3E 3D ]wT = 8
16:34:35-> Modbus RTU OK  READ_CH0_AI,B[115200],F[N,8,1], , CmdType [-1], Cmd [01 04 00 00 00 01 31 CA], Rec [01 04 02 0A 27 FF 8A ]wT = 8
16:34:35-> Modbus RTU OK  READ_CH1_AI,B[115200],F[N,8,1], , CmdType [-1], Cmd [01 04 00 01 00 01 60 0A], Rec [01 04 02 0A 95 7F FF ]wT = 8
16:34:36-> Modbus RTU OK  READ_CH0_AI,B[115200],F[N,8,1], , CmdType [-1], Cmd [01 04 00 00 00 01 31 CA], Rec [01 04 02 0A 27 FF 8A ]wT = 8
16:34:36-> Modbus RTU OK  READ_CH2_AI,B[115200],F[N,8,1], , CmdType [-1], Cmd [01 04 00 02 00 01 90 0A], Rec [01 04 02 1F 88 B1 66 ]wT = 8
16:34:37-> Modbus RTU OK  READ_CH0_AI,B[115200],F[N,8,1], , CmdType [-1], Cmd [01 04 00 00 00 01 31 CA], Rec [01 04 02 0A 2A 3E 4F ]wT = 8
16:34:37-> Modbus RTU OK  READ_CH2_AI,B[115200],F[N,8,1], , CmdType [-1], Cmd [01 04 00 02 00 01 90 0A], Rec [01 04 02 1F 8C B0 A5 ]wT = 8
16:34:38-> Modbus RTU OK  READ_CH0_AI,B[115200],F[N,8,1], , CmdType [-1], Cmd [01 04 00 00 00 01 31 CA], Rec [01 04 02 0A 2D 7F 8D ]wT = 8
16:34:38-> Modbus RTU OK  READ_CH1_AI,B[115200],F[N,8,1], , CmdType [-1], Cmd [01 04 00 01 00 01 60 0A], Rec [01 04 02 0A 95 7F FF ]wT = 8
16:34:39-> Modbus RTU OK  READ_CH0_AI,B[115200],F[N,8,1], , CmdType [-1], Cmd [01 04 00 00 00 01 31 CA], Rec [01 04 02 0A 28 BF 8E ]wT = 8
16:34:39-> Modbus RTU OK  READ_CH1_AI,B[115200],F[N,8,1], , CmdType [-1], Cmd [01 04 00 01 00 01 60 0A], Rec [01 04 02 0A 95 7F FF ]wT = 8
16:34:40-> Modbus RTU OK  READ_CH0_AI,B[115200],F[N,8,1], , CmdType [-1], Cmd [01 04 00 00 00 01 31 CA], Rec [01 04 02 0A 2D 7F 8D ]wT = 9
16:34:40-> Modbus RTU OK  READ_CH1_AI,B[115200],F[N,8,1], , CmdType [-1], Cmd [01 04 00 01 00 01 60 0A], Rec [01 04 02 0A 95 7F FF ]wT = 9
16:34:41-> Modbus RTU OK  READ_CH0_AI,B[115200],F[N,8,1], , CmdType [-1], Cmd [01 04 00 00 00 01 31 CA], Rec [01 04 02 0A 28 BF 8E ]wT = 8
16:34:41-> Modbus RTU OK  READ_CH1_AI,B[115200],F[N,8,1], , CmdType [-1], Cmd [01 04 00 01 00 01 60 0A], Rec [01 04 02 0A 95 7F FF ]wT = 8
16:34:42-> Modbus RTU OK  READ_CH0_AI,B[115200],F[N,8,1], , CmdType [-1], Cmd [01 04 00 00 00 01 31 CA], Rec [01 04 02 0A 26 3E 4A ]wT = 8
16:34:42-> Modbus RTU OK  READ_CH1_AI,B[115200],F[N,8,1], , CmdType [-1], Cmd [01 04 00 01 00 01 60 0A], Rec [01 04 02 0A 92 3E 3D ]wT = 8
16:34:43-> Modbus RTU OK  READ_CH0_AI,B[115200],F[N,8,1], , CmdType [-1], Cmd [01 04 00 00 00 01 31 CA], Rec [01 04 02 0A 2B FF 8F ]wT = 8
16:34:43-> Modbus RTU OK  READ_CH1_AI,B[115200],F[N,8,1], , CmdType [-1], Cmd [01 04 00 01 00 01 60 0A], Rec [01 04 02 0A 96 3F FE ]wT = 8
16:34:43-> Modbus RTU OK  SET_DL30X_TEMPERATURE_OFFSET,B[115200],F[N,8,1], , CmdType [11], Cmd [01 06 01 C0 FF 9C C9 93], Rec [01 06 01 C0 FF 9C C9 93 ]wT = 8
16:34:43-> Modbus RTU OK  GET_DL30X_TEMPERATURE_OFFSET,B[115200],F[N,8,1], , CmdType [10], Cmd [01 03 01 C0 00 01 85 CA], Rec [01 03 02 FF 9C F9 DD ]wT = 14
16:34:44-> Modbus RTU OK  READ_CH0_AI,B[115200],F[N,8,1], , CmdType [-1], Cmd [01 04 00 00 00 01 31 CA], Rec [01 04 02 0A 2B FF 8F ]wT = 8
16:34:44-> Modbus RTU OK  READ_CH1_AI,B[115200],F[N,8,1], , CmdType [-1], Cmd [01 04 00 01 00 01 60 0A], Rec [01 04 02 0A 93 FF FD ]wT = 8
16:34:45-> Modbus RTU OK  READ_CH0_AI,B[115200],F[N,8,1], , CmdType [-1], Cmd [01 04 00 00 00 01 31 CA], Rec [01 04 02 0A 2B FF 8F ]wT = 8
16:34:45-> Modbus RTU OK  READ_CH1_AI,B[115200],F[N,8,1], , CmdType [-1], Cmd [01 04 00 01 00 01 60 0A], Rec [01 04 02 0A 2F FE 4C ]wT = 9
16:34:45-> Modbus RTU OK  SET_DL30X_TEMPERATURE_OFFSET,B[115200],F[N,8,1], , CmdType [11], Cmd [01 06 01 C0 00 00 88 0A], Rec [01 06 01 C0 00 00 88 0A ]wT = 8
16:34:45-> Modbus RTU OK  GET_DL30X_TEMPERATURE_OFFSET,B[115200],F[N,8,1], , CmdType [10], Cmd [01 03 01 C0 00 01 85 CA], Rec [01 03 02 00 00 B8 44 ]wT = 11
16:34:45-> Modbus RTU OK  SET_DL30X_TEMPERATURE_OFFSET,B[115200],F[N,8,1], , CmdType [11], Cmd [01 06 01 C0 00 64 89 E1], Rec [01 06 01 C0 00 64 89 E1 ]wT = 8
16:34:45-> Modbus RTU OK  GET_DL30X_TEMPERATURE_OFFSET,B[115200],F[N,8,1], , CmdType [10], Cmd [01 03 01 C0 00 01 85 CA], Rec [01 03 02 00 64 B9 AF ]wT = 9
16:34:46-> Modbus RTU OK  READ_CH0_AI,B[115200],F[N,8,1], , CmdType [-1], Cmd [01 04 00 00 00 01 31 CA], Rec [01 04 02 0A 2A 3E 4F ]wT = 8
16:34:46-> Modbus RTU OK  READ_CH1_AI,B[115200],F[N,8,1], , CmdType [-1], Cmd [01 04 00 01 00 01 60 0A], Rec [01 04 02 0A 2F FE 4C ]wT = 8
16:34:47-> Modbus RTU OK  READ_CH0_AI,B[115200],F[N,8,1], , CmdType [-1], Cmd [01 04 00 00 00 01 31 CA], Rec [01 04 02 0A 2B FF 8F ]wT = 9
16:34:47-> Modbus RTU OK  READ_CH1_AI,B[115200],F[N,8,1], , CmdType [-1], Cmd [01 04 00 01 00 01 60 0A], Rec [01 04 02 0A F9 7F D2 ]wT = 9
16:34:47-> Modbus RTU OK  SET_DL30X_TEMPERATURE_OFFSET,B[115200],F[N,8,1], , CmdType [11], Cmd [01 06 01 C0 00 C8 89 9C], Rec [01 06 01 C0 00 C8 89 9C ]wT = 8
16:34:47-> Modbus RTU OK  GET_DL30X_TEMPERATURE_OFFSET,B[115200],F[N,8,1], , CmdType [10], Cmd [01 03 01 C0 00 01 85 CA], Rec [01 03 02 00 C8 B9 D2 ]wT = 9
16:34:48-> Modbus RTU OK  READ_CH0_AI,B[115200],F[N,8,1], , CmdType [-1], Cmd [01 04 00 00 00 01 31 CA], Rec [01 04 02 0A 2D 7F 8D ]wT = 8
16:34:48-> Modbus RTU OK  READ_CH1_AI,B[115200],F[N,8,1], , CmdType [-1], Cmd [01 04 00 01 00 01 60 0A], Rec [01 04 02 0A F9 7F D2 ]wT = 9
16:34:49-> Modbus RTU OK  READ_CH0_AI,B[115200],F[N,8,1], , CmdType [-1], Cmd [01 04 00 00 00 01 31 CA], Rec [01 04 02 0A 2B FF 8F ]wT = 8
16:34:49-> Modbus RTU OK  READ_CH1_AI,B[115200],F[N,8,1], , CmdType [-1], Cmd [01 04 00 01 00 01 60 0A], Rec [01 04 02 0B 5D 7F F9 ]wT = 8
16:34:50-> Modbus RTU OK  READ_CH0_AI,B[115200],F[N,8,1], , CmdType [-1], Cmd [01 04 00 00 00 01 31 CA], Rec [01 04 02 0A 24 BF 8B ]wT = 8
16:34:50-> Modbus RTU OK  READ_CH1_AI,B[115200],F[N,8,1], , CmdType [-1], Cmd [01 04 00 01 00 01 60 0A], Rec [01 04 02 0B 5A 3E 3B ]wT = 30
16:34:50-> Modbus RTU OK  SET_DL30X_TEMPERATURE_OFFSET,B[115200],F[N,8,1], , CmdType [11], Cmd [01 06 01 C0 00 64 89 E1], Rec [01 06 01 C0 00 64 89 E1 ]wT = 8
16:34:50-> Modbus RTU OK  GET_DL30X_TEMPERATURE_OFFSET,B[115200],F[N,8,1], , CmdType [10], Cmd [01 03 01 C0 00 01 85 CA], Rec [01 03 02 00 64 B9 AF ]wT = 12
16:34:51-> Modbus RTU OK  SET_DL30X_TEMPERATURE_OFFSET,B[115200],F[N,8,1], , CmdType [11], Cmd [01 06 01 C0 00 00 88 0A], Rec [01 06 01 C0 00 00 88 0A ]wT = 8
16:34:51-> Modbus RTU OK  GET_DL30X_TEMPERATURE_OFFSET,B[115200],F[N,8,1], , CmdType [10], Cmd [01 03 01 C0 00 01 85 CA], Rec [01 03 02 00 00 B8 44 ]wT = 14
16:34:51-> Modbus RTU OK  READ_CH0_AI,B[115200],F[N,8,1], , CmdType [-1], Cmd [01 04 00 00 00 01 31 CA], Rec [01 04 02 0A 28 BF 8E ]wT = 30
16:34:51-> Modbus RTU OK  READ_CH1_AI,B[115200],F[N,8,1], , CmdType [-1], Cmd [01 04 00 01 00 01 60 0A], Rec [01 04 02 0A 95 7F FF ]wT = 8
16:34:52-> Modbus RTU OK  READ_CH0_AI,B[115200],F[N,8,1], , CmdType [-1], Cmd [01 04 00 00 00 01 31 CA], Rec [01 04 02 0A 2A 3E 4F ]wT = 12
16:34:52-> Modbus RTU OK  READ_CH1_AI,B[115200],F[N,8,1], , CmdType [-1], Cmd [01 04 00 01 00 01 60 0A], Rec [01 04 02 0A 95 7F FF ]wT = 11
16:34:53-> Modbus RTU OK  READ_CH0_AI,B[115200],F[N,8,1], , CmdType [-1], Cmd [01 04 00 00 00 01 31 CA], Rec [01 04 02 0A 28 BF 8E ]wT = 8
16:34:53-> Modbus RTU OK  READ_CH1_AI,B[115200],F[N,8,1], , CmdType [-1], Cmd [01 04 00 01 00 01 60 0A], Rec [01 04 02 0A 96 3F FE ]wT = 8
16:34:54-> Modbus RTU OK  READ_CH0_AI,B[115200],F[N,8,1], , CmdType [-1], Cmd [01 04 00 00 00 01 31 CA], Rec [01 04 02 0A 20 BE 48 ]wT = 8
16:34:54-> Modbus RTU OK  READ_CH1_AI,B[115200],F[N,8,1], , CmdType [-1], Cmd [01 04 00 01 00 01 60 0A], Rec [01 04 02 0A 95 7F FF ]wT = 8
16:34:55-> Modbus RTU OK  READ_CH0_AI,B[115200],F[N,8,1], , CmdType [-1], Cmd [01 04 00 00 00 01 31 CA], Rec [01 04 02 0A 22 3F 89 ]wT = 8
16:34:55-> Modbus RTU OK  READ_CH1_AI,B[115200],F[N,8,1], , CmdType [-1], Cmd [01 04 00 01 00 01 60 0A], Rec [01 04 02 0A 93 FF FD ]wT = 8
16:34:56-> Modbus RTU OK  READ_CH0_AI,B[115200],F[N,8,1], , CmdType [-1], Cmd [01 04 00 00 00 01 31 CA], Rec [01 04 02 0A 22 3F 89 ]wT = 8
16:34:56-> Modbus RTU OK  READ_CH1_AI,B[115200],F[N,8,1], , CmdType [-1], Cmd [01 04 00 01 00 01 60 0A], Rec [01 04 02 0A 95 7F FF ]wT = 8
16:34:57-> Modbus RTU OK  READ_CH0_AI,B[115200],F[N,8,1], , CmdType [-1], Cmd [01 04 00 00 00 01 31 CA], Rec [01 04 02 0A 20 BE 48 ]wT = 8
16:34:57-> Modbus RTU OK  READ_CH1_AI,B[115200],F[N,8,1], , CmdType [-1], Cmd [01 04 00 01 00 01 60 0A], Rec [01 04 02 0A 93 FF FD ]wT = 8
16:34:58-> Modbus RTU OK  READ_CH0_AI,B[115200],F[N,8,1], , CmdType [-1], Cmd [01 04 00 00 00 01 31 CA], Rec [01 04 02 0A 25 7E 4B ]wT = 8
16:34:58-> Modbus RTU OK  READ_CH1_AI,B[115200],F[N,8,1], , CmdType [-1], Cmd [01 04 00 01 00 01 60 0A], Rec [01 04 02 0A 95 7F FF ]wT = 8
16:34:59-> Modbus RTU OK  READ_CH0_AI,B[115200],F[N,8,1], , CmdType [-1], Cmd [01 04 00 00 00 01 31 CA], Rec [01 04 02 0A 24 BF 8B ]wT = 8
16:34:59-> Modbus RTU OK  READ_CH1_AI,B[115200],F[N,8,1], , CmdType [-1], Cmd [01 04 00 01 00 01 60 0A], Rec [01 04 02 0A 93 FF FD ]wT = 8
16:35:00-> Modbus RTU OK  READ_CH0_AI,B[115200],F[N,8,1], , CmdType [-1], Cmd [01 04 00 00 00 01 31 CA], Rec [01 04 02 0A 22 3F 89 ]wT = 8
16:35:00-> Modbus RTU OK  READ_CH1_AI,B[115200],F[N,8,1], , CmdType [-1], Cmd [01 04 00 01 00 01 60 0A], Rec [01 04 02 0A 92 3E 3D ]wT = 8
16:35:01-> Modbus RTU OK  READ_CH0_AI,B[115200],F[N,8,1], , CmdType [-1], Cmd [01 04 00 00 00 01 31 CA], Rec [01 04 02 0A 24 BF 8B ]wT = 8
16:35:01-> Modbus RTU OK  READ_CH1_AI,B[115200],F[N,8,1], , CmdType [-1], Cmd [01 04 00 01 00 01 60 0A], Rec [01 04 02 0A 96 3F FE ]wT = 8
16:35:02-> Modbus RTU OK  READ_CH0_AI,B[115200],F[N,8,1], , CmdType [-1], Cmd [01 04 00 00 00 01 31 CA], Rec [01 04 02 0A 1D 7F 99 ]wT = 8
16:35:02-> Modbus RTU OK  READ_CH1_AI,B[115200],F[N,8,1], , CmdType [-1], Cmd [01 04 00 01 00 01 60 0A], Rec [01 04 02 0A 92 3E 3D ]wT = 8
16:35:03-> Modbus RTU OK  READ_CH0_AI,B[115200],F[N,8,1], , CmdType [-1], Cmd [01 04 00 00 00 01 31 CA], Rec [01 04 02 0A 1D 7F 99 ]wT = 8
16:35:03-> Modbus RTU OK  READ_CH1_AI,B[115200],F[N,8,1], , CmdType [-1], Cmd [01 04 00 01 00 01 60 0A], Rec [01 04 02 0A 95 7F FF ]wT = 8
16:35:04-> Modbus RTU OK  READ_CH0_AI,B[115200],F[N,8,1], , CmdType [-1], Cmd [01 04 00 00 00 01 31 CA], Rec [01 04 02 0A 24 BF 8B ]wT = 8
16:35:04-> Modbus RTU OK  READ_CH1_AI,B[115200],F[N,8,1], , CmdType [-1], Cmd [01 04 00 01 00 01 60 0A], Rec [01 04 02 0A 93 FF FD ]wT = 8
16:35:05-> Modbus RTU OK  READ_CH0_AI,B[115200],F[N,8,1], , CmdType [-1], Cmd [01 04 00 00 00 01 31 CA], Rec [01 04 02 0A 1C BE 59 ]wT = 8
16:35:05-> Modbus RTU OK  READ_CH1_AI,B[115200],F[N,8,1], , CmdType [-1], Cmd [01 04 00 01 00 01 60 0A], Rec [01 04 02 0A 95 7F FF ]wT = 8
16:35:06-> Modbus RTU OK  READ_CH0_AI,B[115200],F[N,8,1], , CmdType [-1], Cmd [01 04 00 00 00 01 31 CA], Rec [01 04 02 0A 24 BF 8B ]wT = 8
16:35:06-> Modbus RTU OK  READ_CH1_AI,B[115200],F[N,8,1], , CmdType [-1], Cmd [01 04 00 01 00 01 60 0A], Rec [01 04 02 0A 95 7F FF ]wT = 8
16:35:07-> Modbus RTU OK  READ_CH0_AI,B[115200],F[N,8,1], , CmdType [-1], Cmd [01 04 00 00 00 01 31 CA], Rec [01 04 02 0A 22 3F 89 ]wT = 8
16:35:07-> Modbus RTU OK  READ_CH1_AI,B[115200],F[N,8,1], , CmdType [-1], Cmd [01 04 00 01 00 01 60 0A], Rec [01 04 02 0A 93 FF FD ]wT = 8
16:35:08-> Modbus RTU OK  READ_CH0_AI,B[115200],F[N,8,1], , CmdType [-1], Cmd [01 04 00 00 00 01 31 CA], Rec [01 04 02 0A 22 3F 89 ]wT = 8
16:35:08-> Modbus RTU OK  READ_CH1_AI,B[115200],F[N,8,1], , CmdType [-1], Cmd [01 04 00 01 00 01 60 0A], Rec [01 04 02 0A 93 FF FD ]wT = 8
16:35:09-> Modbus RTU OK  READ_CH0_AI,B[115200],F[N,8,1], , CmdType [-1], Cmd [01 04 00 00 00 01 31 CA], Rec [01 04 02 0A 22 3F 89 ]wT = 8
16:35:09-> Modbus RTU OK  READ_CH1_AI,B[115200],F[N,8,1], , CmdType [-1], Cmd [01 04 00 01 00 01 60 0A], Rec [01 04 02 0A 95 7F FF ]wT = 8
16:35:10-> Modbus RTU OK  READ_CH0_AI,B[115200],F[N,8,1], , CmdType [-1], Cmd [01 04 00 00 00 01 31 CA], Rec [01 04 02 0A 1D 7F 99 ]wT = 8
16:35:10-> Modbus RTU OK  READ_CH1_AI,B[115200],F[N,8,1], , CmdType [-1], Cmd [01 04 00 01 00 01 60 0A], Rec [01 04 02 0A 93 FF FD ]wT = 8
16:35:11-> Modbus RTU OK  READ_CH0_AI,B[115200],F[N,8,1], , CmdType [-1], Cmd [01 04 00 00 00 01 31 CA], Rec [01 04 02 0A 1D 7F 99 ]wT = 8
16:35:11-> Modbus RTU OK  READ_CH1_AI,B[115200],F[N,8,1], , CmdType [-1], Cmd [01 04 00 01 00 01 60 0A], Rec [01 04 02 0A 93 FF FD ]wT = 9
16:35:12-> Modbus RTU OK  READ_CH0_AI,B[115200],F[N,8,1], , CmdType [-1], Cmd [01 04 00 00 00 01 31 CA], Rec [01 04 02 0A 20 BE 48 ]wT = 8
16:35:12-> Modbus RTU OK  READ_CH1_AI,B[115200],F[N,8,1], , CmdType [-1], Cmd [01 04 00 01 00 01 60 0A], Rec [01 04 02 0A 95 7F FF ]wT = 8
16:35:13-> Modbus RTU OK  READ_CH0_AI,B[115200],F[N,8,1], , CmdType [-1], Cmd [01 04 00 00 00 01 31 CA], Rec [01 04 02 0A 20 BE 48 ]wT = 8
16:35:13-> Modbus RTU OK  READ_CH1_AI,B[115200],F[N,8,1], , CmdType [-1], Cmd [01 04 00 01 00 01 60 0A], Rec [01 04 02 0A 93 FF FD ]wT = 8
16:35:14-> Modbus RTU OK  READ_CH0_AI,B[115200],F[N,8,1], , CmdType [-1], Cmd [01 04 00 00 00 01 31 CA], Rec [01 04 02 0A 1D 7F 99 ]wT = 8
16:35:14-> Modbus RTU OK  READ_CH1_AI,B[115200],F[N,8,1], , CmdType [-1], Cmd [01 04 00 01 00 01 60 0A], Rec [01 04 02 0A 95 7F FF ]wT = 8
16:35:15-> Modbus RTU OK  READ_CH0_AI,B[115200],F[N,8,1], , CmdType [-1], Cmd [01 04 00 00 00 01 31 CA], Rec [01 04 02 0A 1C BE 59 ]wT = 8
16:35:15-> Modbus RTU OK  READ_CH1_AI,B[115200],F[N,8,1], , CmdType [-1], Cmd [01 04 00 01 00 01 60 0A], Rec [01 04 02 0A 96 3F FE ]wT = 8
16:35:16-> Modbus RTU OK  READ_CH0_AI,B[115200],F[N,8,1], , CmdType [-1], Cmd [01 04 00 00 00 01 31 CA], Rec [01 04 02 0A 1D 7F 99 ]wT = 8
16:35:16-> Modbus RTU OK  READ_CH1_AI,B[115200],F[N,8,1], , CmdType [-1], Cmd [01 04 00 01 00 01 60 0A], Rec [01 04 02 0A 95 7F FF ]wT = 8
16:35:17-> Modbus RTU OK  READ_CH0_AI,B[115200],F[N,8,1], , CmdType [-1], Cmd [01 04 00 00 00 01 31 CA], Rec [01 04 02 0A 1F FE 58 ]wT = 8
16:35:17-> Modbus RTU OK  READ_CH1_AI,B[115200],F[N,8,1], , CmdType [-1], Cmd [01 04 00 01 00 01 60 0A], Rec [01 04 02 0A 95 7F FF ]wT = 8
16:35:18-> Modbus RTU OK  READ_CH0_AI,B[115200],F[N,8,1], , CmdType [-1], Cmd [01 04 00 00 00 01 31 CA], Rec [01 04 02 0A 1F FE 58 ]wT = 8
16:35:18-> Modbus RTU OK  READ_CH1_AI,B[115200],F[N,8,1], , CmdType [-1], Cmd [01 04 00 01 00 01 60 0A], Rec [01 04 02 0A 93 FF FD ]wT = 8
16:35:19-> Modbus RTU OK  READ_CH0_AI,B[115200],F[N,8,1], , CmdType [-1], Cmd [01 04 00 00 00 01 31 CA], Rec [01 04 02 0A 1A 3E 5B ]wT = 8
16:35:19-> Modbus RTU OK  READ_CH1_AI,B[115200],F[N,8,1], , CmdType [-1], Cmd [01 04 00 01 00 01 60 0A], Rec [01 04 02 0A 95 7F FF ]wT = 8
16:35:20-> Modbus RTU OK  READ_CH0_AI,B[115200],F[N,8,1], , CmdType [-1], Cmd [01 04 00 00 00 01 31 CA], Rec [01 04 02 0A 1C BE 59 ]wT = 8
16:35:20-> Modbus RTU OK  READ_CH1_AI,B[115200],F[N,8,1], , CmdType [-1], Cmd [01 04 00 01 00 01 60 0A], Rec [01 04 02 0A 98 BE 3A ]wT = 8
16:35:21-> Modbus RTU OK  READ_CH0_AI,B[115200],F[N,8,1], , CmdType [-1], Cmd [01 04 00 00 00 01 31 CA], Rec [01 04 02 0A 1C BE 59 ]wT = 8
16:35:21-> Modbus RTU OK  READ_CH1_AI,B[115200],F[N,8,1], , CmdType [-1], Cmd [01 04 00 01 00 01 60 0A], Rec [01 04 02 0A 96 3F FE ]wT = 8
16:35:22-> Modbus RTU OK  READ_CH0_AI,B[115200],F[N,8,1], , CmdType [-1], Cmd [01 04 00 00 00 01 31 CA], Rec [01 04 02 0A 1D 7F 99 ]wT = 8
16:35:22-> Modbus RTU OK  READ_CH1_AI,B[115200],F[N,8,1], , CmdType [-1], Cmd [01 04 00 01 00 01 60 0A], Rec [01 04 02 0A 95 7F FF ]wT = 8
16:35:23-> Modbus RTU OK  READ_CH0_AI,B[115200],F[N,8,1], , CmdType [-1], Cmd [01 04 00 00 00 01 31 CA], Rec [01 04 02 0A 19 7E 5A ]wT = 8
16:35:23-> Modbus RTU OK  READ_CH1_AI,B[115200],F[N,8,1], , CmdType [-1], Cmd [01 04 00 01 00 01 60 0A], Rec [01 04 02 0A 95 7F FF ]wT = 8
