19:31:22-> Modbus RTU OK  GET_MODULE_FIRMWARE,B[19200],F[N,8,1], , CmdType [100], Cmd [05 46 20 52 79], Rec [05 46 20 01 30 00 C7 81 ]wT = 24
19:31:23-> Modbus RTU OK  GET_COMMUNICATE_PARAMETER,B[19200],F[N,8,1], , CmdType [100], Cmd [05 46 05 00 E2 6D], Rec [05 46 05 00 07 00 00 00 01 00 00 ED B3 ]wT = 19
19:31:23-> Modbus RTU OK  GET_MODULE_FIRMWARE,B[19200],F[E,8,1], , CmdType [100], Cmd [05 46 20 52 79], Rec [05 46 20 01 30 00 C7 81 ]wT = 18
19:31:23-> Modbus RTU OK  GET_COMMUNICATE_PARAMETER,B[19200],F[E,8,1], , CmdType [100], Cmd [05 46 05 00 E2 6D], Rec [05 46 05 00 07 00 00 00 01 00 00 ED B3 ]wT = 22
19:31:29-> Modbus RTU OK  GET_MODULE_ADDRESS,B[19200],F[N,8,1], , CmdType [100], Cmd [05 03 01 E4 00 01 C4 45], Rec [05 03 02 00 05 89 87 ]wT = 17
19:31:29-> Modbus RTU OK  GET_DL30X_TEMPERATURE_OFFSET,B[19200],F[N,8,1], , CmdType [10], Cmd [05 03 01 C0 00 01 84 4E], Rec [05 03 02 00 00 49 84 ]wT = 28
19:31:31-> Modbus RTU OK  READ_CH0_AI,B[19200],F[N,8,1], , CmdType [-1], Cmd [05 04 00 00 00 01 30 4E], Rec [05 04 02 0D D6 CD FE ]wT = 17
19:31:31-> Modbus RTU OK  READ_CH1_AI,B[19200],F[N,8,1], , CmdType [-1], Cmd [05 04 00 01 00 01 61 8E], Rec [05 04 02 0A 87 0E 32 ]wT = 19
19:31:31-> Modbus RTU OK  READ_CH0_AI,B[19200],F[N,8,1], , CmdType [-1], Cmd [05 04 00 00 00 01 30 4E], Rec [05 04 02 0D D4 4C 3F ]wT = 33
19:31:31-> Modbus RTU OK  READ_CH1_AI,B[19200],F[N,8,1], , CmdType [-1], Cmd [05 04 00 01 00 01 61 8E], Rec [05 04 02 0A 84 4E 33 ]wT = 20
19:31:31-> Modbus RTU OK  READ_CH0_AI,B[19200],F[N,8,1], , CmdType [-1], Cmd [05 04 00 00 00 01 30 4E], Rec [05 04 02 0D D4 4C 3F ]wT = 17
19:31:31-> Modbus RTU OK  READ_CH1_AI,B[19200],F[N,8,1], , CmdType [-1], Cmd [05 04 00 01 00 01 61 8E], Rec [05 04 02 0A 84 4E 33 ]wT = 18
19:31:32-> Modbus RTU OK  READ_CH0_AI,B[19200],F[N,8,1], , CmdType [-1], Cmd [05 04 00 00 00 01 30 4E], Rec [05 04 02 0D D4 4C 3F ]wT = 18
19:31:32-> Modbus RTU OK  READ_CH1_AI,B[19200],F[N,8,1], , CmdType [-1], Cmd [05 04 00 01 00 01 61 8E], Rec [05 04 02 0A 84 4E 33 ]wT = 20
19:31:32-> Modbus RTU OK  READ_CH0_AI,B[19200],F[N,8,1], , CmdType [-1], Cmd [05 04 00 00 00 01 30 4E], Rec [05 04 02 0D D4 4C 3F ]wT = 17
19:31:32-> Modbus RTU OK  READ_CH1_AI,B[19200],F[N,8,1], , CmdType [-1], Cmd [05 04 00 01 00 01 61 8E], Rec [05 04 02 0A 84 4E 33 ]wT = 18
19:31:32-> Modbus RTU OK  READ_CH0_AI,B[19200],F[N,8,1], , CmdType [-1], Cmd [05 04 00 00 00 01 30 4E], Rec [05 04 02 0D D4 4C 3F ]wT = 17
19:31:32-> Modbus RTU OK  READ_CH1_AI,B[19200],F[N,8,1], , CmdType [-1], Cmd [05 04 00 01 00 01 61 8E], Rec [05 04 02 0A 84 4E 33 ]wT = 18
19:31:32-> Modbus RTU OK  READ_CH0_AI,B[19200],F[N,8,1], , CmdType [-1], Cmd [05 04 00 00 00 01 30 4E], Rec [05 04 02 0D DD 8C 39 ]wT = 17
19:31:32-> Modbus RTU OK  READ_CH1_AI,B[19200],F[N,8,1], , CmdType [-1], Cmd [05 04 00 01 00 01 61 8E], Rec [05 04 02 0A 85 8F F3 ]wT = 18
19:31:32-> Modbus RTU OK  READ_CH0_AI,B[19200],F[N,8,1], , CmdType [-1], Cmd [05 04 00 00 00 01 30 4E], Rec [05 04 02 0D DD 8C 39 ]wT = 17
19:31:32-> Modbus RTU OK  READ_CH1_AI,B[19200],F[N,8,1], , CmdType [-1], Cmd [05 04 00 01 00 01 61 8E], Rec [05 04 02 0A 85 8F F3 ]wT = 18
19:31:33-> Modbus RTU OK  READ_CH0_AI,B[19200],F[N,8,1], , CmdType [-1], Cmd [05 04 00 00 00 01 30 4E], Rec [05 04 02 0D DD 8C 39 ]wT = 17
19:31:33-> Modbus RTU OK  READ_CH1_AI,B[19200],F[N,8,1], , CmdType [-1], Cmd [05 04 00 01 00 01 61 8E], Rec [05 04 02 0A 85 8F F3 ]wT = 21
19:31:33-> Modbus RTU OK  READ_CH0_AI,B[19200],F[N,8,1], , CmdType [-1], Cmd [05 04 00 00 00 01 30 4E], Rec [05 04 02 0D DD 8C 39 ]wT = 17
19:31:33-> Modbus RTU OK  READ_CH1_AI,B[19200],F[N,8,1], , CmdType [-1], Cmd [05 04 00 01 00 01 61 8E], Rec [05 04 02 0A 85 8F F3 ]wT = 18
19:31:33-> Modbus RTU OK  READ_CH0_AI,B[19200],F[N,8,1], , CmdType [-1], Cmd [05 04 00 00 00 01 30 4E], Rec [05 04 02 0D DD 8C 39 ]wT = 20
19:31:33-> Modbus RTU OK  READ_CH1_AI,B[19200],F[N,8,1], , CmdType [-1], Cmd [05 04 00 01 00 01 61 8E], Rec [05 04 02 0A 85 8F F3 ]wT = 21
19:31:33-> Modbus RTU OK  READ_CH0_AI,B[19200],F[N,8,1], , CmdType [-1], Cmd [05 04 00 00 00 01 30 4E], Rec [05 04 02 0D DD 8C 39 ]wT = 19
19:31:33-> Modbus RTU OK  READ_CH1_AI,B[19200],F[N,8,1], , CmdType [-1], Cmd [05 04 00 01 00 01 61 8E], Rec [05 04 02 0A 85 8F F3 ]wT = 20
19:31:33-> Modbus RTU OK  READ_CH0_AI,B[19200],F[N,8,1], , CmdType [-1], Cmd [05 04 00 00 00 01 30 4E], Rec [05 04 02 0D DD 8C 39 ]wT = 24
19:31:34-> Modbus RTU OK  READ_CH1_AI,B[19200],F[N,8,1], , CmdType [-1], Cmd [05 04 00 01 00 01 61 8E], Rec [05 04 02 0A 85 8F F3 ]wT = 24
19:31:34-> Modbus RTU OK  READ_CH0_AI,B[19200],F[N,8,1], , CmdType [-1], Cmd [05 04 00 00 00 01 30 4E], Rec [05 04 02 0D DD 8C 39 ]wT = 25
19:31:34-> Modbus RTU OK  READ_CH1_AI,B[19200],F[N,8,1], , CmdType [-1], Cmd [05 04 00 01 00 01 61 8E], Rec [05 04 02 0A 85 8F F3 ]wT = 26
19:31:34-> Modbus RTU OK  READ_CH0_AI,B[19200],F[N,8,1], , CmdType [-1], Cmd [05 04 00 00 00 01 30 4E], Rec [05 04 02 0D DD 8C 39 ]wT = 26
19:31:34-> Modbus RTU OK  READ_CH1_AI,B[19200],F[N,8,1], , CmdType [-1], Cmd [05 04 00 01 00 01 61 8E], Rec [05 04 02 0A 85 8F F3 ]wT = 28
19:31:34-> Modbus RTU OK  READ_CH0_AI,B[19200],F[N,8,1], , CmdType [-1], Cmd [05 04 00 00 00 01 30 4E], Rec [05 04 02 0D DD 8C 39 ]wT = 17
19:31:34-> Modbus RTU OK  READ_CH1_AI,B[19200],F[N,8,1], , CmdType [-1], Cmd [05 04 00 01 00 01 61 8E], Rec [05 04 02 0A 87 0E 32 ]wT = 19
19:31:34-> Modbus RTU OK  READ_CH0_AI,B[19200],F[N,8,1], , CmdType [-1], Cmd [05 04 00 00 00 01 30 4E], Rec [05 04 02 0D DD 8C 39 ]wT = 17
19:31:34-> Modbus RTU OK  READ_CH1_AI,B[19200],F[N,8,1], , CmdType [-1], Cmd [05 04 00 01 00 01 61 8E], Rec [05 04 02 0A 87 0E 32 ]wT = 18
19:31:35-> Modbus RTU OK  READ_CH0_AI,B[19200],F[N,8,1], , CmdType [-1], Cmd [05 04 00 00 00 01 30 4E], Rec [05 04 02 0D DD 8C 39 ]wT = 17
19:31:35-> Modbus RTU OK  READ_CH1_AI,B[19200],F[N,8,1], , CmdType [-1], Cmd [05 04 00 01 00 01 61 8E], Rec [05 04 02 0A 87 0E 32 ]wT = 18
19:31:35-> Modbus RTU OK  READ_CH0_AI,B[19200],F[N,8,1], , CmdType [-1], Cmd [05 04 00 00 00 01 30 4E], Rec [05 04 02 0D DD 8C 39 ]wT = 17
19:31:35-> Modbus RTU OK  READ_CH1_AI,B[19200],F[N,8,1], , CmdType [-1], Cmd [05 04 00 01 00 01 61 8E], Rec [05 04 02 0A 87 0E 32 ]wT = 19
19:31:35-> Modbus RTU OK  READ_CH0_AI,B[19200],F[N,8,1], , CmdType [-1], Cmd [05 04 00 00 00 01 30 4E], Rec [05 04 02 0D D7 0C 3E ]wT = 27
19:31:35-> Modbus RTU OK  READ_CH1_AI,B[19200],F[N,8,1], , CmdType [-1], Cmd [05 04 00 01 00 01 61 8E], Rec [05 04 02 0A 85 8F F3 ]wT = 28
19:31:35-> Modbus RTU OK  READ_CH0_AI,B[19200],F[N,8,1], , CmdType [-1], Cmd [05 04 00 00 00 01 30 4E], Rec [05 04 02 0D D7 0C 3E ]wT = 17
19:31:35-> Modbus RTU OK  READ_CH1_AI,B[19200],F[N,8,1], , CmdType [-1], Cmd [05 04 00 01 00 01 61 8E], Rec [05 04 02 0A 85 8F F3 ]wT = 19
19:31:35-> Modbus RTU OK  READ_CH0_AI,B[19200],F[N,8,1], , CmdType [-1], Cmd [05 04 00 00 00 01 30 4E], Rec [05 04 02 0D D7 0C 3E ]wT = 17
19:31:35-> Modbus RTU OK  READ_CH1_AI,B[19200],F[N,8,1], , CmdType [-1], Cmd [05 04 00 01 00 01 61 8E], Rec [05 04 02 0A 85 8F F3 ]wT = 19
19:31:36-> Modbus RTU OK  READ_CH0_AI,B[19200],F[N,8,1], , CmdType [-1], Cmd [05 04 00 00 00 01 30 4E], Rec [05 04 02 0D D7 0C 3E ]wT = 18
19:31:36-> Modbus RTU OK  READ_CH1_AI,B[19200],F[N,8,1], , CmdType [-1], Cmd [05 04 00 01 00 01 61 8E], Rec [05 04 02 0A 85 8F F3 ]wT = 19
19:31:36-> Modbus RTU OK  READ_CH0_AI,B[19200],F[N,8,1], , CmdType [-1], Cmd [05 04 00 00 00 01 30 4E], Rec [05 04 02 0D D7 0C 3E ]wT = 17
19:31:36-> Modbus RTU OK  READ_CH1_AI,B[19200],F[N,8,1], , CmdType [-1], Cmd [05 04 00 01 00 01 61 8E], Rec [05 04 02 0A 85 8F F3 ]wT = 18
19:31:36-> Modbus RTU OK  READ_CH0_AI,B[19200],F[N,8,1], , CmdType [-1], Cmd [05 04 00 00 00 01 30 4E], Rec [05 04 02 0D E1 8C 28 ]wT = 17
19:31:36-> Modbus RTU OK  READ_CH1_AI,B[19200],F[N,8,1], , CmdType [-1], Cmd [05 04 00 01 00 01 61 8E], Rec [05 04 02 0A 85 8F F3 ]wT = 19
19:31:36-> Modbus RTU OK  READ_CH0_AI,B[19200],F[N,8,1], , CmdType [-1], Cmd [05 04 00 00 00 01 30 4E], Rec [05 04 02 0D E1 8C 28 ]wT = 17
19:31:36-> Modbus RTU OK  READ_CH1_AI,B[19200],F[N,8,1], , CmdType [-1], Cmd [05 04 00 01 00 01 61 8E], Rec [05 04 02 0A 85 8F F3 ]wT = 18
19:31:37-> Modbus RTU OK  READ_CH0_AI,B[19200],F[N,8,1], , CmdType [-1], Cmd [05 04 00 00 00 01 30 4E], Rec [05 04 02 0D E1 8C 28 ]wT = 17
19:31:37-> Modbus RTU OK  READ_CH1_AI,B[19200],F[N,8,1], , CmdType [-1], Cmd [05 04 00 01 00 01 61 8E], Rec [05 04 02 0A 85 8F F3 ]wT = 18
19:31:37-> Modbus RTU OK  READ_CH0_AI,B[19200],F[N,8,1], , CmdType [-1], Cmd [05 04 00 00 00 01 30 4E], Rec [05 04 02 0D E1 8C 28 ]wT = 17
19:31:37-> Modbus RTU OK  READ_CH1_AI,B[19200],F[N,8,1], , CmdType [-1], Cmd [05 04 00 01 00 01 61 8E], Rec [05 04 02 0A 85 8F F3 ]wT = 19
19:31:37-> Modbus RTU OK  READ_CH0_AI,B[19200],F[N,8,1], , CmdType [-1], Cmd [05 04 00 00 00 01 30 4E], Rec [05 04 02 0D D9 8D FA ]wT = 17
19:31:37-> Modbus RTU OK  READ_CH1_AI,B[19200],F[N,8,1], , CmdType [-1], Cmd [05 04 00 01 00 01 61 8E], Rec [05 04 02 0A 88 4E 36 ]wT = 19
19:31:37-> Modbus RTU OK  READ_CH0_AI,B[19200],F[N,8,1], , CmdType [-1], Cmd [05 04 00 00 00 01 30 4E], Rec [05 04 02 0D D9 8D FA ]wT = 19
19:31:37-> Modbus RTU OK  READ_CH1_AI,B[19200],F[N,8,1], , CmdType [-1], Cmd [05 04 00 01 00 01 61 8E], Rec [05 04 02 0A 88 4E 36 ]wT = 20
19:31:37-> Modbus RTU OK  READ_CH0_AI,B[19200],F[N,8,1], , CmdType [-1], Cmd [05 04 00 00 00 01 30 4E], Rec [05 04 02 0D D9 8D FA ]wT = 17
19:31:37-> Modbus RTU OK  READ_CH1_AI,B[19200],F[N,8,1], , CmdType [-1], Cmd [05 04 00 01 00 01 61 8E], Rec [05 04 02 0A 88 4E 36 ]wT = 18
19:31:38-> Modbus RTU OK  READ_CH0_AI,B[19200],F[N,8,1], , CmdType [-1], Cmd [05 04 00 00 00 01 30 4E], Rec [05 04 02 0D D9 8D FA ]wT = 17
19:31:38-> Modbus RTU OK  READ_CH1_AI,B[19200],F[N,8,1], , CmdType [-1], Cmd [05 04 00 01 00 01 61 8E], Rec [05 04 02 0A 88 4E 36 ]wT = 20
19:31:38-> Modbus RTU OK  READ_CH0_AI,B[19200],F[N,8,1], , CmdType [-1], Cmd [05 04 00 00 00 01 30 4E], Rec [05 04 02 0D D9 8D FA ]wT = 17
19:31:38-> Modbus RTU OK  READ_CH1_AI,B[19200],F[N,8,1], , CmdType [-1], Cmd [05 04 00 01 00 01 61 8E], Rec [05 04 02 0A 88 4E 36 ]wT = 19
19:31:38-> Modbus RTU OK  READ_CH0_AI,B[19200],F[N,8,1], , CmdType [-1], Cmd [05 04 00 00 00 01 30 4E], Rec [05 04 02 0D DB 0C 3B ]wT = 17
19:31:38-> Modbus RTU OK  READ_CH1_AI,B[19200],F[N,8,1], , CmdType [-1], Cmd [05 04 00 01 00 01 61 8E], Rec [05 04 02 0A 85 8F F3 ]wT = 19
19:31:38-> Modbus RTU OK  READ_CH0_AI,B[19200],F[N,8,1], , CmdType [-1], Cmd [05 04 00 00 00 01 30 4E], Rec [05 04 02 0D DB 0C 3B ]wT = 17
19:31:38-> Modbus RTU OK  READ_CH1_AI,B[19200],F[N,8,1], , CmdType [-1], Cmd [05 04 00 01 00 01 61 8E], Rec [05 04 02 0A 85 8F F3 ]wT = 19
19:31:39-> Modbus RTU OK  READ_CH0_AI,B[19200],F[N,8,1], , CmdType [-1], Cmd [05 04 00 00 00 01 30 4E], Rec [05 04 02 0D DB 0C 3B ]wT = 17
19:31:39-> Modbus RTU OK  READ_CH1_AI,B[19200],F[N,8,1], , CmdType [-1], Cmd [05 04 00 01 00 01 61 8E], Rec [05 04 02 0A 85 8F F3 ]wT = 18
19:31:39-> Modbus RTU OK  READ_CH0_AI,B[19200],F[N,8,1], , CmdType [-1], Cmd [05 04 00 00 00 01 30 4E], Rec [05 04 02 0D DB 0C 3B ]wT = 17
19:31:39-> Modbus RTU OK  READ_CH1_AI,B[19200],F[N,8,1], , CmdType [-1], Cmd [05 04 00 01 00 01 61 8E], Rec [05 04 02 0A 85 8F F3 ]wT = 19
19:31:39-> Modbus RTU OK  READ_CH0_AI,B[19200],F[N,8,1], , CmdType [-1], Cmd [05 04 00 00 00 01 30 4E], Rec [05 04 02 0D D7 0C 3E ]wT = 17
19:31:39-> Modbus RTU OK  READ_CH1_AI,B[19200],F[N,8,1], , CmdType [-1], Cmd [05 04 00 01 00 01 61 8E], Rec [05 04 02 0A 85 8F F3 ]wT = 18
19:31:39-> Modbus RTU OK  READ_CH0_AI,B[19200],F[N,8,1], , CmdType [-1], Cmd [05 04 00 00 00 01 30 4E], Rec [05 04 02 0D D7 0C 3E ]wT = 17
19:31:39-> Modbus RTU OK  READ_CH1_AI,B[19200],F[N,8,1], , CmdType [-1], Cmd [05 04 00 01 00 01 61 8E], Rec [05 04 02 0A 85 8F F3 ]wT = 18
19:31:39-> Modbus RTU OK  READ_CH0_AI,B[19200],F[N,8,1], , CmdType [-1], Cmd [05 04 00 00 00 01 30 4E], Rec [05 04 02 0D D7 0C 3E ]wT = 18
19:31:39-> Modbus RTU OK  READ_CH1_AI,B[19200],F[N,8,1], , CmdType [-1], Cmd [05 04 00 01 00 01 61 8E], Rec [05 04 02 0A 85 8F F3 ]wT = 18
19:31:40-> Modbus RTU OK  READ_CH0_AI,B[19200],F[N,8,1], , CmdType [-1], Cmd [05 04 00 00 00 01 30 4E], Rec [05 04 02 0D D7 0C 3E ]wT = 26
19:31:40-> Modbus RTU OK  READ_CH1_AI,B[19200],F[N,8,1], , CmdType [-1], Cmd [05 04 00 01 00 01 61 8E], Rec [05 04 02 0A 85 8F F3 ]wT = 27
19:31:40-> Modbus RTU OK  READ_CH0_AI,B[19200],F[N,8,1], , CmdType [-1], Cmd [05 04 00 00 00 01 30 4E], Rec [05 04 02 0D D7 0C 3E ]wT = 27
19:31:40-> Modbus RTU OK  READ_CH1_AI,B[19200],F[N,8,1], , CmdType [-1], Cmd [05 04 00 01 00 01 61 8E], Rec [05 04 02 0A 85 8F F3 ]wT = 17
19:31:40-> Modbus RTU OK  READ_CH0_AI,B[19200],F[N,8,1], , CmdType [-1], Cmd [05 04 00 00 00 01 30 4E], Rec [05 04 02 0D D7 0C 3E ]wT = 17
19:31:40-> Modbus RTU OK  READ_CH1_AI,B[19200],F[N,8,1], , CmdType [-1], Cmd [05 04 00 01 00 01 61 8E], Rec [05 04 02 0A 88 4E 36 ]wT = 17
19:31:40-> Modbus RTU OK  READ_CH0_AI,B[19200],F[N,8,1], , CmdType [-1], Cmd [05 04 00 00 00 01 30 4E], Rec [05 04 02 0D D7 0C 3E ]wT = 17
19:31:40-> Modbus RTU OK  READ_CH1_AI,B[19200],F[N,8,1], , CmdType [-1], Cmd [05 04 00 01 00 01 61 8E], Rec [05 04 02 0A 88 4E 36 ]wT = 19
19:31:40-> Modbus RTU OK  READ_CH0_AI,B[19200],F[N,8,1], , CmdType [-1], Cmd [05 04 00 00 00 01 30 4E], Rec [05 04 02 0D D7 0C 3E ]wT = 17
19:31:41-> Modbus RTU OK  READ_CH1_AI,B[19200],F[N,8,1], , CmdType [-1], Cmd [05 04 00 01 00 01 61 8E], Rec [05 04 02 0A 88 4E 36 ]wT = 18
19:31:41-> Modbus RTU OK  READ_CH0_AI,B[19200],F[N,8,1], , CmdType [-1], Cmd [05 04 00 00 00 01 30 4E], Rec [05 04 02 0D D7 0C 3E ]wT = 17
19:31:41-> Modbus RTU OK  READ_CH1_AI,B[19200],F[N,8,1], , CmdType [-1], Cmd [05 04 00 01 00 01 61 8E], Rec [05 04 02 0A 88 4E 36 ]wT = 19
19:31:41-> Modbus RTU OK  READ_CH0_AI,B[19200],F[N,8,1], , CmdType [-1], Cmd [05 04 00 00 00 01 30 4E], Rec [05 04 02 0D D8 4C 3A ]wT = 17
19:31:41-> Modbus RTU OK  READ_CH1_AI,B[19200],F[N,8,1], , CmdType [-1], Cmd [05 04 00 01 00 01 61 8E], Rec [05 04 02 0A 87 0E 32 ]wT = 18
19:31:41-> Modbus RTU OK  READ_CH0_AI,B[19200],F[N,8,1], , CmdType [-1], Cmd [05 04 00 00 00 01 30 4E], Rec [05 04 02 0D D8 4C 3A ]wT = 17
19:31:41-> Modbus RTU OK  READ_CH1_AI,B[19200],F[N,8,1], , CmdType [-1], Cmd [05 04 00 01 00 01 61 8E], Rec [05 04 02 0A 87 0E 32 ]wT = 19
19:31:41-> Modbus RTU OK  READ_CH0_AI,B[19200],F[N,8,1], , CmdType [-1], Cmd [05 04 00 00 00 01 30 4E], Rec [05 04 02 0D D8 4C 3A ]wT = 17
19:31:41-> Modbus RTU OK  READ_CH1_AI,B[19200],F[N,8,1], , CmdType [-1], Cmd [05 04 00 01 00 01 61 8E], Rec [05 04 02 0A 87 0E 32 ]wT = 18
19:31:42-> Modbus RTU OK  READ_CH0_AI,B[19200],F[N,8,1], , CmdType [-1], Cmd [05 04 00 00 00 01 30 4E], Rec [05 04 02 0D D8 4C 3A ]wT = 17
19:31:42-> Modbus RTU OK  READ_CH1_AI,B[19200],F[N,8,1], , CmdType [-1], Cmd [05 04 00 01 00 01 61 8E], Rec [05 04 02 0A 87 0E 32 ]wT = 17
19:31:42-> Modbus RTU OK  READ_CH0_AI,B[19200],F[N,8,1], , CmdType [-1], Cmd [05 04 00 00 00 01 30 4E], Rec [05 04 02 0D D8 4C 3A ]wT = 25
19:31:42-> Modbus RTU OK  READ_CH1_AI,B[19200],F[N,8,1], , CmdType [-1], Cmd [05 04 00 01 00 01 61 8E], Rec [05 04 02 0A 87 0E 32 ]wT = 26
19:31:42-> Modbus RTU OK  READ_CH0_AI,B[19200],F[N,8,1], , CmdType [-1], Cmd [05 04 00 00 00 01 30 4E], Rec [05 04 02 0D D4 4C 3F ]wT = 23
19:31:42-> Modbus RTU OK  READ_CH1_AI,B[19200],F[N,8,1], , CmdType [-1], Cmd [05 04 00 01 00 01 61 8E], Rec [05 04 02 0A 87 0E 32 ]wT = 24
19:31:42-> Modbus RTU OK  READ_CH0_AI,B[19200],F[N,8,1], , CmdType [-1], Cmd [05 04 00 00 00 01 30 4E], Rec [05 04 02 0D D4 4C 3F ]wT = 26
19:31:42-> Modbus RTU OK  READ_CH1_AI,B[19200],F[N,8,1], , CmdType [-1], Cmd [05 04 00 01 00 01 61 8E], Rec [05 04 02 0A 87 0E 32 ]wT = 27
19:31:42-> Modbus RTU OK  READ_CH0_AI,B[19200],F[N,8,1], , CmdType [-1], Cmd [05 04 00 00 00 01 30 4E], Rec [05 04 02 0D D4 4C 3F ]wT = 17
19:31:42-> Modbus RTU OK  READ_CH1_AI,B[19200],F[N,8,1], , CmdType [-1], Cmd [05 04 00 01 00 01 61 8E], Rec [05 04 02 0A 87 0E 32 ]wT = 17
19:31:43-> Modbus RTU OK  READ_CH0_AI,B[19200],F[N,8,1], , CmdType [-1], Cmd [05 04 00 00 00 01 30 4E], Rec [05 04 02 0D D4 4C 3F ]wT = 17
19:31:43-> Modbus RTU OK  READ_CH1_AI,B[19200],F[N,8,1], , CmdType [-1], Cmd [05 04 00 01 00 01 61 8E], Rec [05 04 02 0A 87 0E 32 ]wT = 17
19:31:43-> Modbus RTU OK  READ_CH0_AI,B[19200],F[N,8,1], , CmdType [-1], Cmd [05 04 00 00 00 01 30 4E], Rec [05 04 02 0D D7 0C 3E ]wT = 17
19:31:43-> Modbus RTU OK  READ_CH1_AI,B[19200],F[N,8,1], , CmdType [-1], Cmd [05 04 00 01 00 01 61 8E], Rec [05 04 02 0A 87 0E 32 ]wT = 19
19:31:43-> Modbus RTU OK  READ_CH0_AI,B[19200],F[N,8,1], , CmdType [-1], Cmd [05 04 00 00 00 01 30 4E], Rec [05 04 02 0D D7 0C 3E ]wT = 17
19:31:43-> Modbus RTU OK  READ_CH1_AI,B[19200],F[N,8,1], , CmdType [-1], Cmd [05 04 00 01 00 01 61 8E], Rec [05 04 02 0A 87 0E 32 ]wT = 17
19:31:43-> Modbus RTU OK  READ_CH0_AI,B[19200],F[N,8,1], , CmdType [-1], Cmd [05 04 00 00 00 01 30 4E], Rec [05 04 02 0D D7 0C 3E ]wT = 17
19:31:43-> Modbus RTU OK  READ_CH1_AI,B[19200],F[N,8,1], , CmdType [-1], Cmd [05 04 00 01 00 01 61 8E], Rec [05 04 02 0A 87 0E 32 ]wT = 19
19:31:44-> Modbus RTU OK  READ_CH0_AI,B[19200],F[N,8,1], , CmdType [-1], Cmd [05 04 00 00 00 01 30 4E], Rec [05 04 02 0D D7 0C 3E ]wT = 17
19:31:44-> Modbus RTU OK  READ_CH1_AI,B[19200],F[N,8,1], , CmdType [-1], Cmd [05 04 00 01 00 01 61 8E], Rec [05 04 02 0A 87 0E 32 ]wT = 18
19:31:44-> Modbus RTU OK  READ_CH0_AI,B[19200],F[N,8,1], , CmdType [-1], Cmd [05 04 00 00 00 01 30 4E], Rec [05 04 02 0D D7 0C 3E ]wT = 17
19:31:44-> Modbus RTU OK  READ_CH1_AI,B[19200],F[N,8,1], , CmdType [-1], Cmd [05 04 00 01 00 01 61 8E], Rec [05 04 02 0A 87 0E 32 ]wT = 20
19:31:44-> Modbus RTU OK  READ_CH0_AI,B[19200],F[N,8,1], , CmdType [-1], Cmd [05 04 00 00 00 01 30 4E], Rec [05 04 02 0D D4 4C 3F ]wT = 17
19:31:44-> Modbus RTU OK  READ_CH1_AI,B[19200],F[N,8,1], , CmdType [-1], Cmd [05 04 00 01 00 01 61 8E], Rec [05 04 02 0A 87 0E 32 ]wT = 17
19:31:44-> Modbus RTU OK  READ_CH0_AI,B[19200],F[N,8,1], , CmdType [-1], Cmd [05 04 00 00 00 01 30 4E], Rec [05 04 02 0D D4 4C 3F ]wT = 17
19:31:44-> Modbus RTU OK  READ_CH1_AI,B[19200],F[N,8,1], , CmdType [-1], Cmd [05 04 00 01 00 01 61 8E], Rec [05 04 02 0A 87 0E 32 ]wT = 17
19:31:44-> Modbus RTU OK  READ_CH0_AI,B[19200],F[N,8,1], , CmdType [-1], Cmd [05 04 00 00 00 01 30 4E], Rec [05 04 02 0D D4 4C 3F ]wT = 17
19:31:44-> Modbus RTU OK  READ_CH1_AI,B[19200],F[N,8,1], , CmdType [-1], Cmd [05 04 00 01 00 01 61 8E], Rec [05 04 02 0A 87 0E 32 ]wT = 18
19:31:45-> Modbus RTU OK  READ_CH0_AI,B[19200],F[N,8,1], , CmdType [-1], Cmd [05 04 00 00 00 01 30 4E], Rec [05 04 02 0D D4 4C 3F ]wT = 17
19:31:45-> Modbus RTU OK  READ_CH1_AI,B[19200],F[N,8,1], , CmdType [-1], Cmd [05 04 00 01 00 01 61 8E], Rec [05 04 02 0A 87 0E 32 ]wT = 18
19:31:45-> Modbus RTU OK  READ_CH0_AI,B[19200],F[N,8,1], , CmdType [-1], Cmd [05 04 00 00 00 01 30 4E], Rec [05 04 02 0D CE CD F4 ]wT = 17
19:31:45-> Modbus RTU OK  READ_CH1_AI,B[19200],F[N,8,1], , CmdType [-1], Cmd [05 04 00 01 00 01 61 8E], Rec [05 04 02 0A 85 8F F3 ]wT = 18
19:31:45-> Modbus RTU OK  READ_CH0_AI,B[19200],F[N,8,1], , CmdType [-1], Cmd [05 04 00 00 00 01 30 4E], Rec [05 04 02 0D CE CD F4 ]wT = 17
19:31:45-> Modbus RTU OK  READ_CH1_AI,B[19200],F[N,8,1], , CmdType [-1], Cmd [05 04 00 01 00 01 61 8E], Rec [05 04 02 0A 85 8F F3 ]wT = 19
19:31:45-> Modbus RTU OK  READ_CH0_AI,B[19200],F[N,8,1], , CmdType [-1], Cmd [05 04 00 00 00 01 30 4E], Rec [05 04 02 0D CE CD F4 ]wT = 17
19:31:45-> Modbus RTU OK  READ_CH1_AI,B[19200],F[N,8,1], , CmdType [-1], Cmd [05 04 00 01 00 01 61 8E], Rec [05 04 02 0A 85 8F F3 ]wT = 19
19:31:46-> Modbus RTU OK  READ_CH0_AI,B[19200],F[N,8,1], , CmdType [-1], Cmd [05 04 00 00 00 01 30 4E], Rec [05 04 02 0D CE CD F4 ]wT = 17
19:31:46-> Modbus RTU OK  READ_CH1_AI,B[19200],F[N,8,1], , CmdType [-1], Cmd [05 04 00 01 00 01 61 8E], Rec [05 04 02 0A 85 8F F3 ]wT = 18
19:31:46-> Modbus RTU OK  READ_CH0_AI,B[19200],F[N,8,1], , CmdType [-1], Cmd [05 04 00 00 00 01 30 4E], Rec [05 04 02 0D CE CD F4 ]wT = 17
19:31:46-> Modbus RTU OK  READ_CH1_AI,B[19200],F[N,8,1], , CmdType [-1], Cmd [05 04 00 01 00 01 61 8E], Rec [05 04 02 0A 85 8F F3 ]wT = 19
19:31:46-> Modbus RTU OK  READ_CH0_AI,B[19200],F[N,8,1], , CmdType [-1], Cmd [05 04 00 00 00 01 30 4E], Rec [05 04 02 0D CD 8D F5 ]wT = 17
19:31:46-> Modbus RTU OK  READ_CH1_AI,B[19200],F[N,8,1], , CmdType [-1], Cmd [05 04 00 01 00 01 61 8E], Rec [05 04 02 0A 85 8F F3 ]wT = 19
19:31:46-> Modbus RTU OK  READ_CH0_AI,B[19200],F[N,8,1], , CmdType [-1], Cmd [05 04 00 00 00 01 30 4E], Rec [05 04 02 0D CD 8D F5 ]wT = 17
19:31:46-> Modbus RTU OK  READ_CH1_AI,B[19200],F[N,8,1], , CmdType [-1], Cmd [05 04 00 01 00 01 61 8E], Rec [05 04 02 0A 85 8F F3 ]wT = 19
19:31:46-> Modbus RTU OK  READ_CH0_AI,B[19200],F[N,8,1], , CmdType [-1], Cmd [05 04 00 00 00 01 30 4E], Rec [05 04 02 0D CD 8D F5 ]wT = 18
19:31:46-> Modbus RTU OK  READ_CH1_AI,B[19200],F[N,8,1], , CmdType [-1], Cmd [05 04 00 01 00 01 61 8E], Rec [05 04 02 0A 85 8F F3 ]wT = 20
19:31:47-> Modbus RTU OK  READ_CH0_AI,B[19200],F[N,8,1], , CmdType [-1], Cmd [05 04 00 00 00 01 30 4E], Rec [05 04 02 0D CD 8D F5 ]wT = 17
19:31:47-> Modbus RTU OK  READ_CH1_AI,B[19200],F[N,8,1], , CmdType [-1], Cmd [05 04 00 01 00 01 61 8E], Rec [05 04 02 0A 85 8F F3 ]wT = 19
19:31:47-> Modbus RTU OK  READ_CH0_AI,B[19200],F[N,8,1], , CmdType [-1], Cmd [05 04 00 00 00 01 30 4E], Rec [05 04 02 0D CE CD F4 ]wT = 17
19:31:47-> Modbus RTU OK  READ_CH1_AI,B[19200],F[N,8,1], , CmdType [-1], Cmd [05 04 00 01 00 01 61 8E], Rec [05 04 02 0A 85 8F F3 ]wT = 19
19:31:47-> Modbus RTU OK  READ_CH0_AI,B[19200],F[N,8,1], , CmdType [-1], Cmd [05 04 00 00 00 01 30 4E], Rec [05 04 02 0D CE CD F4 ]wT = 17
19:31:47-> Modbus RTU OK  READ_CH1_AI,B[19200],F[N,8,1], , CmdType [-1], Cmd [05 04 00 01 00 01 61 8E], Rec [05 04 02 0A 85 8F F3 ]wT = 19
19:31:47-> Modbus RTU OK  READ_CH0_AI,B[19200],F[N,8,1], , CmdType [-1], Cmd [05 04 00 00 00 01 30 4E], Rec [05 04 02 0D CE CD F4 ]wT = 17
19:31:47-> Modbus RTU OK  READ_CH1_AI,B[19200],F[N,8,1], , CmdType [-1], Cmd [05 04 00 01 00 01 61 8E], Rec [05 04 02 0A 85 8F F3 ]wT = 18
19:31:47-> Modbus RTU OK  READ_CH0_AI,B[19200],F[N,8,1], , CmdType [-1], Cmd [05 04 00 00 00 01 30 4E], Rec [05 04 02 0D CE CD F4 ]wT = 18
19:31:48-> Modbus RTU OK  READ_CH1_AI,B[19200],F[N,8,1], , CmdType [-1], Cmd [05 04 00 01 00 01 61 8E], Rec [05 04 02 0A 85 8F F3 ]wT = 20
19:31:48-> Modbus RTU OK  READ_CH0_AI,B[19200],F[N,8,1], , CmdType [-1], Cmd [05 04 00 00 00 01 30 4E], Rec [05 04 02 0D CE CD F4 ]wT = 17
19:31:48-> Modbus RTU OK  READ_CH1_AI,B[19200],F[N,8,1], , CmdType [-1], Cmd [05 04 00 01 00 01 61 8E], Rec [05 04 02 0A 85 8F F3 ]wT = 19
19:31:48-> Modbus RTU OK  READ_CH0_AI,B[19200],F[N,8,1], , CmdType [-1], Cmd [05 04 00 00 00 01 30 4E], Rec [05 04 02 0D CB 0D F7 ]wT = 17
19:31:48-> Modbus RTU OK  READ_CH1_AI,B[19200],F[N,8,1], , CmdType [-1], Cmd [05 04 00 01 00 01 61 8E], Rec [05 04 02 0A 85 8F F3 ]wT = 19
19:31:48-> Modbus RTU OK  READ_CH0_AI,B[19200],F[N,8,1], , CmdType [-1], Cmd [05 04 00 00 00 01 30 4E], Rec [05 04 02 0D CB 0D F7 ]wT = 17
19:31:48-> Modbus RTU OK  READ_CH1_AI,B[19200],F[N,8,1], , CmdType [-1], Cmd [05 04 00 01 00 01 61 8E], Rec [05 04 02 0A 85 8F F3 ]wT = 19
19:31:48-> Modbus RTU OK  READ_CH0_AI,B[19200],F[N,8,1], , CmdType [-1], Cmd [05 04 00 00 00 01 30 4E], Rec [05 04 02 0D CB 0D F7 ]wT = 18
19:31:48-> Modbus RTU OK  READ_CH1_AI,B[19200],F[N,8,1], , CmdType [-1], Cmd [05 04 00 01 00 01 61 8E], Rec [05 04 02 0A 85 8F F3 ]wT = 19
19:31:49-> Modbus RTU OK  READ_CH0_AI,B[19200],F[N,8,1], , CmdType [-1], Cmd [05 04 00 00 00 01 30 4E], Rec [05 04 02 0D CB 0D F7 ]wT = 18
19:31:49-> Modbus RTU OK  READ_CH1_AI,B[19200],F[N,8,1], , CmdType [-1], Cmd [05 04 00 01 00 01 61 8E], Rec [05 04 02 0A 85 8F F3 ]wT = 20
19:31:49-> Modbus RTU OK  READ_CH0_AI,B[19200],F[N,8,1], , CmdType [-1], Cmd [05 04 00 00 00 01 30 4E], Rec [05 04 02 0D C7 0D F2 ]wT = 17
19:31:49-> Modbus RTU OK  READ_CH1_AI,B[19200],F[N,8,1], , CmdType [-1], Cmd [05 04 00 01 00 01 61 8E], Rec [05 04 02 0A 87 0E 32 ]wT = 18
19:31:49-> Modbus RTU OK  READ_CH0_AI,B[19200],F[N,8,1], , CmdType [-1], Cmd [05 04 00 00 00 01 30 4E], Rec [05 04 02 0D C7 0D F2 ]wT = 18
19:31:49-> Modbus RTU OK  READ_CH1_AI,B[19200],F[N,8,1], , CmdType [-1], Cmd [05 04 00 01 00 01 61 8E], Rec [05 04 02 0A 87 0E 32 ]wT = 19
19:31:49-> Modbus RTU OK  READ_CH0_AI,B[19200],F[N,8,1], , CmdType [-1], Cmd [05 04 00 00 00 01 30 4E], Rec [05 04 02 0D C7 0D F2 ]wT = 17
19:31:49-> Modbus RTU OK  READ_CH1_AI,B[19200],F[N,8,1], , CmdType [-1], Cmd [05 04 00 01 00 01 61 8E], Rec [05 04 02 0A 87 0E 32 ]wT = 18
19:31:49-> Modbus RTU OK  READ_CH0_AI,B[19200],F[N,8,1], , CmdType [-1], Cmd [05 04 00 00 00 01 30 4E], Rec [05 04 02 0D C7 0D F2 ]wT = 18
19:31:49-> Modbus RTU OK  READ_CH1_AI,B[19200],F[N,8,1], , CmdType [-1], Cmd [05 04 00 01 00 01 61 8E], Rec [05 04 02 0A 87 0E 32 ]wT = 20
19:31:50-> Modbus RTU OK  READ_CH0_AI,B[19200],F[N,8,1], , CmdType [-1], Cmd [05 04 00 00 00 01 30 4E], Rec [05 04 02 0D C7 0D F2 ]wT = 17
19:31:50-> Modbus RTU OK  READ_CH1_AI,B[19200],F[N,8,1], , CmdType [-1], Cmd [05 04 00 01 00 01 61 8E], Rec [05 04 02 0A 87 0E 32 ]wT = 19
19:31:50-> Modbus RTU OK  READ_CH0_AI,B[19200],F[N,8,1], , CmdType [-1], Cmd [05 04 00 00 00 01 30 4E], Rec [05 04 02 0D CA CC 37 ]wT = 17
19:31:50-> Modbus RTU OK  READ_CH1_AI,B[19200],F[N,8,1], , CmdType [-1], Cmd [05 04 00 01 00 01 61 8E], Rec [05 04 02 0A 84 4E 33 ]wT = 18
19:31:50-> Modbus RTU OK  READ_CH0_AI,B[19200],F[N,8,1], , CmdType [-1], Cmd [05 04 00 00 00 01 30 4E], Rec [05 04 02 0D CA CC 37 ]wT = 18
19:31:50-> Modbus RTU OK  READ_CH1_AI,B[19200],F[N,8,1], , CmdType [-1], Cmd [05 04 00 01 00 01 61 8E], Rec [05 04 02 0A 84 4E 33 ]wT = 18
19:31:50-> Modbus RTU OK  READ_CH0_AI,B[19200],F[N,8,1], , CmdType [-1], Cmd [05 04 00 00 00 01 30 4E], Rec [05 04 02 0D CA CC 37 ]wT = 17
19:31:50-> Modbus RTU OK  READ_CH1_AI,B[19200],F[N,8,1], , CmdType [-1], Cmd [05 04 00 01 00 01 61 8E], Rec [05 04 02 0A 84 4E 33 ]wT = 19
19:31:51-> Modbus RTU OK  READ_CH0_AI,B[19200],F[N,8,1], , CmdType [-1], Cmd [05 04 00 00 00 01 30 4E], Rec [05 04 02 0D CA CC 37 ]wT = 17
19:31:51-> Modbus RTU OK  READ_CH1_AI,B[19200],F[N,8,1], , CmdType [-1], Cmd [05 04 00 01 00 01 61 8E], Rec [05 04 02 0A 84 4E 33 ]wT = 19
19:31:51-> Modbus RTU OK  READ_CH0_AI,B[19200],F[N,8,1], , CmdType [-1], Cmd [05 04 00 00 00 01 30 4E], Rec [05 04 02 0D C4 4D F3 ]wT = 17
19:31:51-> Modbus RTU OK  READ_CH1_AI,B[19200],F[N,8,1], , CmdType [-1], Cmd [05 04 00 01 00 01 61 8E], Rec [05 04 02 0A 85 8F F3 ]wT = 19
19:31:51-> Modbus RTU OK  READ_CH0_AI,B[19200],F[N,8,1], , CmdType [-1], Cmd [05 04 00 00 00 01 30 4E], Rec [05 04 02 0D C4 4D F3 ]wT = 17
19:31:51-> Modbus RTU OK  READ_CH1_AI,B[19200],F[N,8,1], , CmdType [-1], Cmd [05 04 00 01 00 01 61 8E], Rec [05 04 02 0A 85 8F F3 ]wT = 19
19:31:51-> Modbus RTU OK  READ_CH0_AI,B[19200],F[N,8,1], , CmdType [-1], Cmd [05 04 00 00 00 01 30 4E], Rec [05 04 02 0D C4 4D F3 ]wT = 17
19:31:51-> Modbus RTU OK  READ_CH1_AI,B[19200],F[N,8,1], , CmdType [-1], Cmd [05 04 00 01 00 01 61 8E], Rec [05 04 02 0A 85 8F F3 ]wT = 18
19:31:51-> Modbus RTU OK  READ_CH0_AI,B[19200],F[N,8,1], , CmdType [-1], Cmd [05 04 00 00 00 01 30 4E], Rec [05 04 02 0D C4 4D F3 ]wT = 17
19:31:51-> Modbus RTU OK  READ_CH1_AI,B[19200],F[N,8,1], , CmdType [-1], Cmd [05 04 00 01 00 01 61 8E], Rec [05 04 02 0A 85 8F F3 ]wT = 18
19:31:52-> Modbus RTU OK  READ_CH0_AI,B[19200],F[N,8,1], , CmdType [-1], Cmd [05 04 00 00 00 01 30 4E], Rec [05 04 02 0D C4 4D F3 ]wT = 17
19:31:52-> Modbus RTU OK  READ_CH1_AI,B[19200],F[N,8,1], , CmdType [-1], Cmd [05 04 00 01 00 01 61 8E], Rec [05 04 02 0A 85 8F F3 ]wT = 57
19:31:52-> Modbus RTU OK  READ_CH0_AI,B[19200],F[N,8,1], , CmdType [-1], Cmd [05 04 00 00 00 01 30 4E], Rec [05 04 02 0D C9 8C 36 ]wT = 17
19:31:52-> Modbus RTU OK  READ_CH1_AI,B[19200],F[N,8,1], , CmdType [-1], Cmd [05 04 00 01 00 01 61 8E], Rec [05 04 02 0A 85 8F F3 ]wT = 18
19:31:52-> Modbus RTU OK  READ_CH0_AI,B[19200],F[N,8,1], , CmdType [-1], Cmd [05 04 00 00 00 01 30 4E], Rec [05 04 02 0D C9 8C 36 ]wT = 17
19:31:52-> Modbus RTU OK  READ_CH1_AI,B[19200],F[N,8,1], , CmdType [-1], Cmd [05 04 00 01 00 01 61 8E], Rec [05 04 02 0A 85 8F F3 ]wT = 20
19:31:52-> Modbus RTU OK  READ_CH0_AI,B[19200],F[N,8,1], , CmdType [-1], Cmd [05 04 00 00 00 01 30 4E], Rec [05 04 02 0D C9 8C 36 ]wT = 17
19:31:52-> Modbus RTU OK  READ_CH1_AI,B[19200],F[N,8,1], , CmdType [-1], Cmd [05 04 00 01 00 01 61 8E], Rec [05 04 02 0A 85 8F F3 ]wT = 18
19:31:53-> Modbus RTU OK  READ_CH0_AI,B[19200],F[N,8,1], , CmdType [-1], Cmd [05 04 00 00 00 01 30 4E], Rec [05 04 02 0D C9 8C 36 ]wT = 17
19:31:53-> Modbus RTU OK  READ_CH1_AI,B[19200],F[N,8,1], , CmdType [-1], Cmd [05 04 00 01 00 01 61 8E], Rec [05 04 02 0A 85 8F F3 ]wT = 18
19:31:53-> Modbus RTU OK  READ_CH0_AI,B[19200],F[N,8,1], , CmdType [-1], Cmd [05 04 00 00 00 01 30 4E], Rec [05 04 02 0D C1 8D F0 ]wT = 17
19:31:53-> Modbus RTU OK  READ_CH1_AI,B[19200],F[N,8,1], , CmdType [-1], Cmd [05 04 00 01 00 01 61 8E], Rec [05 04 02 0A 84 4E 33 ]wT = 19
19:31:53-> Modbus RTU OK  READ_CH0_AI,B[19200],F[N,8,1], , CmdType [-1], Cmd [05 04 00 00 00 01 30 4E], Rec [05 04 02 0D C1 8D F0 ]wT = 17
19:31:53-> Modbus RTU OK  READ_CH1_AI,B[19200],F[N,8,1], , CmdType [-1], Cmd [05 04 00 01 00 01 61 8E], Rec [05 04 02 0A 84 4E 33 ]wT = 19
19:31:53-> Modbus RTU OK  READ_CH0_AI,B[19200],F[N,8,1], , CmdType [-1], Cmd [05 04 00 00 00 01 30 4E], Rec [05 04 02 0D C1 8D F0 ]wT = 18
19:31:53-> Modbus RTU OK  READ_CH1_AI,B[19200],F[N,8,1], , CmdType [-1], Cmd [05 04 00 01 00 01 61 8E], Rec [05 04 02 0A 84 4E 33 ]wT = 19
19:31:53-> Modbus RTU OK  READ_CH0_AI,B[19200],F[N,8,1], , CmdType [-1], Cmd [05 04 00 00 00 01 30 4E], Rec [05 04 02 0D C1 8D F0 ]wT = 17
19:31:54-> Modbus RTU OK  READ_CH1_AI,B[19200],F[N,8,1], , CmdType [-1], Cmd [05 04 00 01 00 01 61 8E], Rec [05 04 02 0A 84 4E 33 ]wT = 18
19:31:54-> Modbus RTU OK  READ_CH0_AI,B[19200],F[N,8,1], , CmdType [-1], Cmd [05 04 00 00 00 01 30 4E], Rec [05 04 02 0D C2 CD F1 ]wT = 17
19:31:54-> Modbus RTU OK  READ_CH1_AI,B[19200],F[N,8,1], , CmdType [-1], Cmd [05 04 00 01 00 01 61 8E], Rec [05 04 02 0A 87 0E 32 ]wT = 19
19:31:54-> Modbus RTU OK  READ_CH0_AI,B[19200],F[N,8,1], , CmdType [-1], Cmd [05 04 00 00 00 01 30 4E], Rec [05 04 02 0D C2 CD F1 ]wT = 17
19:31:54-> Modbus RTU OK  READ_CH1_AI,B[19200],F[N,8,1], , CmdType [-1], Cmd [05 04 00 01 00 01 61 8E], Rec [05 04 02 0A 87 0E 32 ]wT = 19
19:31:54-> Modbus RTU OK  READ_CH0_AI,B[19200],F[N,8,1], , CmdType [-1], Cmd [05 04 00 00 00 01 30 4E], Rec [05 04 02 0D C2 CD F1 ]wT = 17
19:31:54-> Modbus RTU OK  READ_CH1_AI,B[19200],F[N,8,1], , CmdType [-1], Cmd [05 04 00 01 00 01 61 8E], Rec [05 04 02 0A 87 0E 32 ]wT = 18
19:31:54-> Modbus RTU OK  READ_CH0_AI,B[19200],F[N,8,1], , CmdType [-1], Cmd [05 04 00 00 00 01 30 4E], Rec [05 04 02 0D C2 CD F1 ]wT = 19
19:31:54-> Modbus RTU OK  READ_CH1_AI,B[19200],F[N,8,1], , CmdType [-1], Cmd [05 04 00 01 00 01 61 8E], Rec [05 04 02 0A 87 0E 32 ]wT = 20
19:31:55-> Modbus RTU OK  READ_CH0_AI,B[19200],F[N,8,1], , CmdType [-1], Cmd [05 04 00 00 00 01 30 4E], Rec [05 04 02 0D C0 4C 30 ]wT = 17
19:31:55-> Modbus RTU OK  READ_CH1_AI,B[19200],F[N,8,1], , CmdType [-1], Cmd [05 04 00 01 00 01 61 8E], Rec [05 04 02 0A 85 8F F3 ]wT = 19
19:31:55-> Modbus RTU OK  READ_CH0_AI,B[19200],F[N,8,1], , CmdType [-1], Cmd [05 04 00 00 00 01 30 4E], Rec [05 04 02 0D C0 4C 30 ]wT = 17
19:31:55-> Modbus RTU OK  READ_CH1_AI,B[19200],F[N,8,1], , CmdType [-1], Cmd [05 04 00 01 00 01 61 8E], Rec [05 04 02 0A 85 8F F3 ]wT = 18
19:31:55-> Modbus RTU OK  READ_CH0_AI,B[19200],F[N,8,1], , CmdType [-1], Cmd [05 04 00 00 00 01 30 4E], Rec [05 04 02 0D C0 4C 30 ]wT = 17
19:31:55-> Modbus RTU OK  READ_CH1_AI,B[19200],F[N,8,1], , CmdType [-1], Cmd [05 04 00 01 00 01 61 8E], Rec [05 04 02 0A 85 8F F3 ]wT = 18
19:31:55-> Modbus RTU OK  READ_CH0_AI,B[19200],F[N,8,1], , CmdType [-1], Cmd [05 04 00 00 00 01 30 4E], Rec [05 04 02 0D C0 4C 30 ]wT = 17
19:31:55-> Modbus RTU OK  READ_CH1_AI,B[19200],F[N,8,1], , CmdType [-1], Cmd [05 04 00 01 00 01 61 8E], Rec [05 04 02 0A 85 8F F3 ]wT = 19
19:31:56-> Modbus RTU OK  READ_CH0_AI,B[19200],F[N,8,1], , CmdType [-1], Cmd [05 04 00 00 00 01 30 4E], Rec [05 04 02 0D C2 CD F1 ]wT = 56
19:31:56-> Modbus RTU OK  READ_CH1_AI,B[19200],F[N,8,1], , CmdType [-1], Cmd [05 04 00 01 00 01 61 8E], Rec [05 04 02 0A 85 8F F3 ]wT = 25
19:31:56-> Modbus RTU OK  READ_CH0_AI,B[19200],F[N,8,1], , CmdType [-1], Cmd [05 04 00 00 00 01 30 4E], Rec [05 04 02 0D C2 CD F1 ]wT = 17
19:31:56-> Modbus RTU OK  READ_CH1_AI,B[19200],F[N,8,1], , CmdType [-1], Cmd [05 04 00 01 00 01 61 8E], Rec [05 04 02 0A 85 8F F3 ]wT = 19
19:31:56-> Modbus RTU OK  READ_CH0_AI,B[19200],F[N,8,1], , CmdType [-1], Cmd [05 04 00 00 00 01 30 4E], Rec [05 04 02 0D C2 CD F1 ]wT = 17
19:31:56-> Modbus RTU OK  READ_CH1_AI,B[19200],F[N,8,1], , CmdType [-1], Cmd [05 04 00 01 00 01 61 8E], Rec [05 04 02 0A 85 8F F3 ]wT = 18
19:31:56-> Modbus RTU OK  READ_CH0_AI,B[19200],F[N,8,1], , CmdType [-1], Cmd [05 04 00 00 00 01 30 4E], Rec [05 04 02 0D C2 CD F1 ]wT = 18
19:31:56-> Modbus RTU OK  READ_CH1_AI,B[19200],F[N,8,1], , CmdType [-1], Cmd [05 04 00 01 00 01 61 8E], Rec [05 04 02 0A 85 8F F3 ]wT = 19
19:31:56-> Modbus RTU OK  READ_CH0_AI,B[19200],F[N,8,1], , CmdType [-1], Cmd [05 04 00 00 00 01 30 4E], Rec [05 04 02 0D C2 CD F1 ]wT = 17
19:31:57-> Modbus RTU OK  READ_CH1_AI,B[19200],F[N,8,1], , CmdType [-1], Cmd [05 04 00 01 00 01 61 8E], Rec [05 04 02 0A 85 8F F3 ]wT = 19
19:31:57-> Modbus RTU OK  READ_CH0_AI,B[19200],F[N,8,1], , CmdType [-1], Cmd [05 04 00 00 00 01 30 4E], Rec [05 04 02 0D C4 4D F3 ]wT = 17
19:31:57-> Modbus RTU OK  READ_CH1_AI,B[19200],F[N,8,1], , CmdType [-1], Cmd [05 04 00 01 00 01 61 8E], Rec [05 04 02 0A 87 0E 32 ]wT = 20
19:31:57-> Modbus RTU OK  READ_CH0_AI,B[19200],F[N,8,1], , CmdType [-1], Cmd [05 04 00 00 00 01 30 4E], Rec [05 04 02 0D C4 4D F3 ]wT = 17
19:31:57-> Modbus RTU OK  READ_CH1_AI,B[19200],F[N,8,1], , CmdType [-1], Cmd [05 04 00 01 00 01 61 8E], Rec [05 04 02 0A 87 0E 32 ]wT = 19
19:31:57-> Modbus RTU OK  READ_CH0_AI,B[19200],F[N,8,1], , CmdType [-1], Cmd [05 04 00 00 00 01 30 4E], Rec [05 04 02 0D C4 4D F3 ]wT = 17
19:31:57-> Modbus RTU OK  READ_CH1_AI,B[19200],F[N,8,1], , CmdType [-1], Cmd [05 04 00 01 00 01 61 8E], Rec [05 04 02 0A 87 0E 32 ]wT = 19
19:31:57-> Modbus RTU OK  READ_CH0_AI,B[19200],F[N,8,1], , CmdType [-1], Cmd [05 04 00 00 00 01 30 4E], Rec [05 04 02 0D C4 4D F3 ]wT = 17
19:31:57-> Modbus RTU OK  READ_CH1_AI,B[19200],F[N,8,1], , CmdType [-1], Cmd [05 04 00 01 00 01 61 8E], Rec [05 04 02 0A 87 0E 32 ]wT = 20
19:31:58-> Modbus RTU OK  READ_CH0_AI,B[19200],F[N,8,1], , CmdType [-1], Cmd [05 04 00 00 00 01 30 4E], Rec [05 04 02 0D BC 4D D1 ]wT = 34
19:31:58-> Modbus RTU OK  READ_CH1_AI,B[19200],F[N,8,1], , CmdType [-1], Cmd [05 04 00 01 00 01 61 8E], Rec [05 04 02 0A 85 8F F3 ]wT = 21
19:31:58-> Modbus RTU OK  READ_CH0_AI,B[19200],F[N,8,1], , CmdType [-1], Cmd [05 04 00 00 00 01 30 4E], Rec [05 04 02 0D BC 4D D1 ]wT = 17
19:31:58-> Modbus RTU OK  READ_CH1_AI,B[19200],F[N,8,1], , CmdType [-1], Cmd [05 04 00 01 00 01 61 8E], Rec [05 04 02 0A 85 8F F3 ]wT = 18
19:31:58-> Modbus RTU OK  READ_CH0_AI,B[19200],F[N,8,1], , CmdType [-1], Cmd [05 04 00 00 00 01 30 4E], Rec [05 04 02 0D BC 4D D1 ]wT = 17
19:31:58-> Modbus RTU OK  READ_CH1_AI,B[19200],F[N,8,1], , CmdType [-1], Cmd [05 04 00 01 00 01 61 8E], Rec [05 04 02 0A 85 8F F3 ]wT = 18
19:31:58-> Modbus RTU OK  READ_CH0_AI,B[19200],F[N,8,1], , CmdType [-1], Cmd [05 04 00 00 00 01 30 4E], Rec [05 04 02 0D BC 4D D1 ]wT = 18
19:31:58-> Modbus RTU OK  READ_CH1_AI,B[19200],F[N,8,1], , CmdType [-1], Cmd [05 04 00 01 00 01 61 8E], Rec [05 04 02 0A 85 8F F3 ]wT = 19
19:31:58-> Modbus RTU OK  READ_CH0_AI,B[19200],F[N,8,1], , CmdType [-1], Cmd [05 04 00 00 00 01 30 4E], Rec [05 04 02 0D BC 4D D1 ]wT = 18
19:31:59-> Modbus RTU OK  READ_CH1_AI,B[19200],F[N,8,1], , CmdType [-1], Cmd [05 04 00 01 00 01 61 8E], Rec [05 04 02 0A 85 8F F3 ]wT = 20
19:31:59-> Modbus RTU OK  READ_CH0_AI,B[19200],F[N,8,1], , CmdType [-1], Cmd [05 04 00 00 00 01 30 4E], Rec [05 04 02 0D C3 0C 31 ]wT = 17
19:31:59-> Modbus RTU OK  READ_CH1_AI,B[19200],F[N,8,1], , CmdType [-1], Cmd [05 04 00 01 00 01 61 8E], Rec [05 04 02 0A 85 8F F3 ]wT = 20
19:31:59-> Modbus RTU OK  READ_CH0_AI,B[19200],F[N,8,1], , CmdType [-1], Cmd [05 04 00 00 00 01 30 4E], Rec [05 04 02 0D C3 0C 31 ]wT = 17
19:31:59-> Modbus RTU OK  READ_CH1_AI,B[19200],F[N,8,1], , CmdType [-1], Cmd [05 04 00 01 00 01 61 8E], Rec [05 04 02 0A 85 8F F3 ]wT = 19
19:31:59-> Modbus RTU OK  READ_CH0_AI,B[19200],F[N,8,1], , CmdType [-1], Cmd [05 04 00 00 00 01 30 4E], Rec [05 04 02 0D C3 0C 31 ]wT = 17
19:31:59-> Modbus RTU OK  READ_CH1_AI,B[19200],F[N,8,1], , CmdType [-1], Cmd [05 04 00 01 00 01 61 8E], Rec [05 04 02 0A 85 8F F3 ]wT = 18
19:31:59-> Modbus RTU OK  READ_CH0_AI,B[19200],F[N,8,1], , CmdType [-1], Cmd [05 04 00 00 00 01 30 4E], Rec [05 04 02 0D C3 0C 31 ]wT = 18
19:31:59-> Modbus RTU OK  READ_CH1_AI,B[19200],F[N,8,1], , CmdType [-1], Cmd [05 04 00 01 00 01 61 8E], Rec [05 04 02 0A 85 8F F3 ]wT = 19
19:32:00-> Modbus RTU OK  READ_CH0_AI,B[19200],F[N,8,1], , CmdType [-1], Cmd [05 04 00 00 00 01 30 4E], Rec [05 04 02 0D BF 0D D0 ]wT = 29
19:32:00-> Modbus RTU OK  READ_CH1_AI,B[19200],F[N,8,1], , CmdType [-1], Cmd [05 04 00 01 00 01 61 8E], Rec [05 04 02 0A 85 8F F3 ]wT = 17
19:32:00-> Modbus RTU OK  READ_CH0_AI,B[19200],F[N,8,1], , CmdType [-1], Cmd [05 04 00 00 00 01 30 4E], Rec [05 04 02 0D BF 0D D0 ]wT = 18
19:32:00-> Modbus RTU OK  READ_CH1_AI,B[19200],F[N,8,1], , CmdType [-1], Cmd [05 04 00 01 00 01 61 8E], Rec [05 04 02 0A 85 8F F3 ]wT = 19
19:32:00-> Modbus RTU OK  READ_CH0_AI,B[19200],F[N,8,1], , CmdType [-1], Cmd [05 04 00 00 00 01 30 4E], Rec [05 04 02 0D BF 0D D0 ]wT = 18
19:32:00-> Modbus RTU OK  READ_CH1_AI,B[19200],F[N,8,1], , CmdType [-1], Cmd [05 04 00 01 00 01 61 8E], Rec [05 04 02 0A 85 8F F3 ]wT = 19
19:32:00-> Modbus RTU OK  READ_CH0_AI,B[19200],F[N,8,1], , CmdType [-1], Cmd [05 04 00 00 00 01 30 4E], Rec [05 04 02 0D BF 0D D0 ]wT = 17
19:32:00-> Modbus RTU OK  READ_CH1_AI,B[19200],F[N,8,1], , CmdType [-1], Cmd [05 04 00 01 00 01 61 8E], Rec [05 04 02 0A 85 8F F3 ]wT = 19
19:32:00-> Modbus RTU OK  READ_CH0_AI,B[19200],F[N,8,1], , CmdType [-1], Cmd [05 04 00 00 00 01 30 4E], Rec [05 04 02 0D BF 0D D0 ]wT = 17
19:32:00-> Modbus RTU OK  READ_CH1_AI,B[19200],F[N,8,1], , CmdType [-1], Cmd [05 04 00 01 00 01 61 8E], Rec [05 04 02 0A 85 8F F3 ]wT = 19
19:32:01-> Modbus RTU OK  READ_CH0_AI,B[19200],F[N,8,1], , CmdType [-1], Cmd [05 04 00 00 00 01 30 4E], Rec [05 04 02 0D BF 0D D0 ]wT = 17
19:32:01-> Modbus RTU OK  READ_CH1_AI,B[19200],F[N,8,1], , CmdType [-1], Cmd [05 04 00 01 00 01 61 8E], Rec [05 04 02 0A 85 8F F3 ]wT = 19
19:32:01-> Modbus RTU OK  READ_CH0_AI,B[19200],F[N,8,1], , CmdType [-1], Cmd [05 04 00 00 00 01 30 4E], Rec [05 04 02 0D BF 0D D0 ]wT = 17
19:32:01-> Modbus RTU OK  READ_CH1_AI,B[19200],F[N,8,1], , CmdType [-1], Cmd [05 04 00 01 00 01 61 8E], Rec [05 04 02 0A 85 8F F3 ]wT = 18
19:32:01-> Modbus RTU OK  READ_CH0_AI,B[19200],F[N,8,1], , CmdType [-1], Cmd [05 04 00 00 00 01 30 4E], Rec [05 04 02 0D BF 0D D0 ]wT = 17
19:32:01-> Modbus RTU OK  READ_CH1_AI,B[19200],F[N,8,1], , CmdType [-1], Cmd [05 04 00 01 00 01 61 8E], Rec [05 04 02 0A 85 8F F3 ]wT = 19
19:32:01-> Modbus RTU OK  READ_CH0_AI,B[19200],F[N,8,1], , CmdType [-1], Cmd [05 04 00 00 00 01 30 4E], Rec [05 04 02 0D BF 0D D0 ]wT = 17
19:32:01-> Modbus RTU OK  READ_CH1_AI,B[19200],F[N,8,1], , CmdType [-1], Cmd [05 04 00 01 00 01 61 8E], Rec [05 04 02 0A 85 8F F3 ]wT = 19
19:32:02-> Modbus RTU OK  READ_CH0_AI,B[19200],F[N,8,1], , CmdType [-1], Cmd [05 04 00 00 00 01 30 4E], Rec [05 04 02 0D BF 0D D0 ]wT = 24
19:32:02-> Modbus RTU OK  READ_CH1_AI,B[19200],F[N,8,1], , CmdType [-1], Cmd [05 04 00 01 00 01 61 8E], Rec [05 04 02 0A 85 8F F3 ]wT = 25
19:32:02-> Modbus RTU OK  READ_CH0_AI,B[19200],F[N,8,1], , CmdType [-1], Cmd [05 04 00 00 00 01 30 4E], Rec [05 04 02 0D BF 0D D0 ]wT = 17
19:32:02-> Modbus RTU OK  READ_CH1_AI,B[19200],F[N,8,1], , CmdType [-1], Cmd [05 04 00 01 00 01 61 8E], Rec [05 04 02 0A 85 8F F3 ]wT = 18
19:32:02-> Modbus RTU OK  READ_CH0_AI,B[19200],F[N,8,1], , CmdType [-1], Cmd [05 04 00 00 00 01 30 4E], Rec [05 04 02 0D BF 0D D0 ]wT = 17
19:32:02-> Modbus RTU OK  READ_CH1_AI,B[19200],F[N,8,1], , CmdType [-1], Cmd [05 04 00 01 00 01 61 8E], Rec [05 04 02 0A 85 8F F3 ]wT = 19
19:32:02-> Modbus RTU OK  READ_CH0_AI,B[19200],F[N,8,1], , CmdType [-1], Cmd [05 04 00 00 00 01 30 4E], Rec [05 04 02 0D BF 0D D0 ]wT = 17
19:32:02-> Modbus RTU OK  READ_CH1_AI,B[19200],F[N,8,1], , CmdType [-1], Cmd [05 04 00 01 00 01 61 8E], Rec [05 04 02 0A 85 8F F3 ]wT = 18
19:32:02-> Modbus RTU OK  READ_CH0_AI,B[19200],F[N,8,1], , CmdType [-1], Cmd [05 04 00 00 00 01 30 4E], Rec [05 04 02 0D BF 0D D0 ]wT = 17
19:32:02-> Modbus RTU OK  READ_CH1_AI,B[19200],F[N,8,1], , CmdType [-1], Cmd [05 04 00 01 00 01 61 8E], Rec [05 04 02 0A 85 8F F3 ]wT = 18
19:32:03-> Modbus RTU OK  READ_CH0_AI,B[19200],F[N,8,1], , CmdType [-1], Cmd [05 04 00 00 00 01 30 4E], Rec [05 04 02 0D BD 8C 11 ]wT = 17
19:32:03-> Modbus RTU OK  READ_CH1_AI,B[19200],F[N,8,1], , CmdType [-1], Cmd [05 04 00 01 00 01 61 8E], Rec [05 04 02 0A 87 0E 32 ]wT = 18
19:32:03-> Modbus RTU OK  READ_CH0_AI,B[19200],F[N,8,1], , CmdType [-1], Cmd [05 04 00 00 00 01 30 4E], Rec [05 04 02 0D BD 8C 11 ]wT = 17
19:32:03-> Modbus RTU OK  READ_CH1_AI,B[19200],F[N,8,1], , CmdType [-1], Cmd [05 04 00 01 00 01 61 8E], Rec [05 04 02 0A 87 0E 32 ]wT = 17
19:32:03-> Modbus RTU OK  READ_CH0_AI,B[19200],F[N,8,1], , CmdType [-1], Cmd [05 04 00 00 00 01 30 4E], Rec [05 04 02 0D BD 8C 11 ]wT = 17
19:32:03-> Modbus RTU OK  READ_CH1_AI,B[19200],F[N,8,1], , CmdType [-1], Cmd [05 04 00 01 00 01 61 8E], Rec [05 04 02 0A 87 0E 32 ]wT = 18
19:32:03-> Modbus RTU OK  READ_CH0_AI,B[19200],F[N,8,1], , CmdType [-1], Cmd [05 04 00 00 00 01 30 4E], Rec [05 04 02 0D BD 8C 11 ]wT = 17
19:32:03-> Modbus RTU OK  READ_CH1_AI,B[19200],F[N,8,1], , CmdType [-1], Cmd [05 04 00 01 00 01 61 8E], Rec [05 04 02 0A 87 0E 32 ]wT = 18
19:32:03-> Modbus RTU OK  READ_CH0_AI,B[19200],F[N,8,1], , CmdType [-1], Cmd [05 04 00 00 00 01 30 4E], Rec [05 04 02 0D B9 8D D2 ]wT = 18
19:32:04-> Modbus RTU OK  READ_CH1_AI,B[19200],F[N,8,1], , CmdType [-1], Cmd [05 04 00 01 00 01 61 8E], Rec [05 04 02 0A 87 0E 32 ]wT = 19
19:32:04-> Modbus RTU OK  READ_CH0_AI,B[19200],F[N,8,1], , CmdType [-1], Cmd [05 04 00 00 00 01 30 4E], Rec [05 04 02 0D B9 8D D2 ]wT = 18
19:32:04-> Modbus RTU OK  READ_CH1_AI,B[19200],F[N,8,1], , CmdType [-1], Cmd [05 04 00 01 00 01 61 8E], Rec [05 04 02 0A 87 0E 32 ]wT = 19
19:32:04-> Modbus RTU OK  READ_CH0_AI,B[19200],F[N,8,1], , CmdType [-1], Cmd [05 04 00 00 00 01 30 4E], Rec [05 04 02 0D B9 8D D2 ]wT = 17
19:32:04-> Modbus RTU OK  READ_CH1_AI,B[19200],F[N,8,1], , CmdType [-1], Cmd [05 04 00 01 00 01 61 8E], Rec [05 04 02 0A 87 0E 32 ]wT = 19
19:32:04-> Modbus RTU OK  READ_CH0_AI,B[19200],F[N,8,1], , CmdType [-1], Cmd [05 04 00 00 00 01 30 4E], Rec [05 04 02 0D B9 8D D2 ]wT = 17
19:32:04-> Modbus RTU OK  READ_CH1_AI,B[19200],F[N,8,1], , CmdType [-1], Cmd [05 04 00 01 00 01 61 8E], Rec [05 04 02 0A 87 0E 32 ]wT = 19
19:32:04-> Modbus RTU OK  READ_CH0_AI,B[19200],F[N,8,1], , CmdType [-1], Cmd [05 04 00 00 00 01 30 4E], Rec [05 04 02 0D B9 8D D2 ]wT = 17
19:32:04-> Modbus RTU OK  READ_CH1_AI,B[19200],F[N,8,1], , CmdType [-1], Cmd [05 04 00 01 00 01 61 8E], Rec [05 04 02 0A 87 0E 32 ]wT = 19
19:32:05-> Modbus RTU OK  READ_CH0_AI,B[19200],F[N,8,1], , CmdType [-1], Cmd [05 04 00 00 00 01 30 4E], Rec [05 04 02 0D BD 8C 11 ]wT = 17
19:32:05-> Modbus RTU OK  READ_CH1_AI,B[19200],F[N,8,1], , CmdType [-1], Cmd [05 04 00 01 00 01 61 8E], Rec [05 04 02 0A 87 0E 32 ]wT = 19
19:32:05-> Modbus RTU OK  READ_CH0_AI,B[19200],F[N,8,1], , CmdType [-1], Cmd [05 04 00 00 00 01 30 4E], Rec [05 04 02 0D BD 8C 11 ]wT = 17
19:32:05-> Modbus RTU OK  READ_CH1_AI,B[19200],F[N,8,1], , CmdType [-1], Cmd [05 04 00 01 00 01 61 8E], Rec [05 04 02 0A 87 0E 32 ]wT = 19
19:32:05-> Modbus RTU OK  READ_CH0_AI,B[19200],F[N,8,1], , CmdType [-1], Cmd [05 04 00 00 00 01 30 4E], Rec [05 04 02 0D BD 8C 11 ]wT = 17
19:32:05-> Modbus RTU OK  READ_CH1_AI,B[19200],F[N,8,1], , CmdType [-1], Cmd [05 04 00 01 00 01 61 8E], Rec [05 04 02 0A 87 0E 32 ]wT = 18
19:32:05-> Modbus RTU OK  READ_CH0_AI,B[19200],F[N,8,1], , CmdType [-1], Cmd [05 04 00 00 00 01 30 4E], Rec [05 04 02 0D BD 8C 11 ]wT = 17
19:32:05-> Modbus RTU OK  READ_CH1_AI,B[19200],F[N,8,1], , CmdType [-1], Cmd [05 04 00 01 00 01 61 8E], Rec [05 04 02 0A 87 0E 32 ]wT = 18
19:32:05-> Modbus RTU OK  READ_CH0_AI,B[19200],F[N,8,1], , CmdType [-1], Cmd [05 04 00 00 00 01 30 4E], Rec [05 04 02 0D BA CD D3 ]wT = 17
19:32:05-> Modbus RTU OK  READ_CH1_AI,B[19200],F[N,8,1], , CmdType [-1], Cmd [05 04 00 01 00 01 61 8E], Rec [05 04 02 0A 84 4E 33 ]wT = 20
19:32:06-> Modbus RTU OK  READ_CH0_AI,B[19200],F[N,8,1], , CmdType [-1], Cmd [05 04 00 00 00 01 30 4E], Rec [05 04 02 0D BA CD D3 ]wT = 17
19:32:06-> Modbus RTU OK  READ_CH1_AI,B[19200],F[N,8,1], , CmdType [-1], Cmd [05 04 00 01 00 01 61 8E], Rec [05 04 02 0A 84 4E 33 ]wT = 19
19:32:06-> Modbus RTU OK  READ_CH0_AI,B[19200],F[N,8,1], , CmdType [-1], Cmd [05 04 00 00 00 01 30 4E], Rec [05 04 02 0D BA CD D3 ]wT = 17
19:32:06-> Modbus RTU OK  READ_CH1_AI,B[19200],F[N,8,1], , CmdType [-1], Cmd [05 04 00 01 00 01 61 8E], Rec [05 04 02 0A 84 4E 33 ]wT = 19
19:32:06-> Modbus RTU OK  READ_CH0_AI,B[19200],F[N,8,1], , CmdType [-1], Cmd [05 04 00 00 00 01 30 4E], Rec [05 04 02 0D BA CD D3 ]wT = 17
19:32:06-> Modbus RTU OK  READ_CH1_AI,B[19200],F[N,8,1], , CmdType [-1], Cmd [05 04 00 01 00 01 61 8E], Rec [05 04 02 0A 84 4E 33 ]wT = 19
19:32:06-> Modbus RTU OK  READ_CH0_AI,B[19200],F[N,8,1], , CmdType [-1], Cmd [05 04 00 00 00 01 30 4E], Rec [05 04 02 0D BA CD D3 ]wT = 17
19:32:06-> Modbus RTU OK  READ_CH1_AI,B[19200],F[N,8,1], , CmdType [-1], Cmd [05 04 00 01 00 01 61 8E], Rec [05 04 02 0A 84 4E 33 ]wT = 18
19:32:07-> Modbus RTU OK  READ_CH0_AI,B[19200],F[N,8,1], , CmdType [-1], Cmd [05 04 00 00 00 01 30 4E], Rec [05 04 02 0D BA CD D3 ]wT = 17
19:32:07-> Modbus RTU OK  READ_CH1_AI,B[19200],F[N,8,1], , CmdType [-1], Cmd [05 04 00 01 00 01 61 8E], Rec [05 04 02 0A 88 4E 36 ]wT = 20
19:32:07-> Modbus RTU OK  READ_CH0_AI,B[19200],F[N,8,1], , CmdType [-1], Cmd [05 04 00 00 00 01 30 4E], Rec [05 04 02 0D BA CD D3 ]wT = 17
19:32:07-> Modbus RTU OK  READ_CH1_AI,B[19200],F[N,8,1], , CmdType [-1], Cmd [05 04 00 01 00 01 61 8E], Rec [05 04 02 0A 88 4E 36 ]wT = 19
19:32:07-> Modbus RTU OK  READ_CH0_AI,B[19200],F[N,8,1], , CmdType [-1], Cmd [05 04 00 00 00 01 30 4E], Rec [05 04 02 0D BA CD D3 ]wT = 28
19:32:07-> Modbus RTU OK  READ_CH1_AI,B[19200],F[N,8,1], , CmdType [-1], Cmd [05 04 00 01 00 01 61 8E], Rec [05 04 02 0A 88 4E 36 ]wT = 17
19:32:07-> Modbus RTU OK  READ_CH0_AI,B[19200],F[N,8,1], , CmdType [-1], Cmd [05 04 00 00 00 01 30 4E], Rec [05 04 02 0D BA CD D3 ]wT = 29
19:32:07-> Modbus RTU OK  READ_CH1_AI,B[19200],F[N,8,1], , CmdType [-1], Cmd [05 04 00 01 00 01 61 8E], Rec [05 04 02 0A 88 4E 36 ]wT = 17
19:32:07-> Modbus RTU OK  READ_CH0_AI,B[19200],F[N,8,1], , CmdType [-1], Cmd [05 04 00 00 00 01 30 4E], Rec [05 04 02 0D BA CD D3 ]wT = 29
19:32:07-> Modbus RTU OK  READ_CH1_AI,B[19200],F[N,8,1], , CmdType [-1], Cmd [05 04 00 01 00 01 61 8E], Rec [05 04 02 0A 85 8F F3 ]wT = 17
19:32:08-> Modbus RTU OK  READ_CH0_AI,B[19200],F[N,8,1], , CmdType [-1], Cmd [05 04 00 00 00 01 30 4E], Rec [05 04 02 0D BA CD D3 ]wT = 17
19:32:08-> Modbus RTU OK  READ_CH1_AI,B[19200],F[N,8,1], , CmdType [-1], Cmd [05 04 00 01 00 01 61 8E], Rec [05 04 02 0A 85 8F F3 ]wT = 20
19:32:08-> Modbus RTU OK  READ_CH0_AI,B[19200],F[N,8,1], , CmdType [-1], Cmd [05 04 00 00 00 01 30 4E], Rec [05 04 02 0D BA CD D3 ]wT = 29
19:32:08-> Modbus RTU OK  READ_CH1_AI,B[19200],F[N,8,1], , CmdType [-1], Cmd [05 04 00 01 00 01 61 8E], Rec [05 04 02 0A 85 8F F3 ]wT = 17
19:32:08-> Modbus RTU OK  READ_CH0_AI,B[19200],F[N,8,1], , CmdType [-1], Cmd [05 04 00 00 00 01 30 4E], Rec [05 04 02 0D BA CD D3 ]wT = 17
19:32:08-> Modbus RTU OK  READ_CH1_AI,B[19200],F[N,8,1], , CmdType [-1], Cmd [05 04 00 01 00 01 61 8E], Rec [05 04 02 0A 85 8F F3 ]wT = 18
19:32:08-> Modbus RTU OK  READ_CH0_AI,B[19200],F[N,8,1], , CmdType [-1], Cmd [05 04 00 00 00 01 30 4E], Rec [05 04 02 0D BA CD D3 ]wT = 17
19:32:08-> Modbus RTU OK  READ_CH1_AI,B[19200],F[N,8,1], , CmdType [-1], Cmd [05 04 00 01 00 01 61 8E], Rec [05 04 02 0A 85 8F F3 ]wT = 18
19:32:09-> Modbus RTU OK  READ_CH0_AI,B[19200],F[N,8,1], , CmdType [-1], Cmd [05 04 00 00 00 01 30 4E], Rec [05 04 02 0D BC 4D D1 ]wT = 17
19:32:09-> Modbus RTU OK  READ_CH1_AI,B[19200],F[N,8,1], , CmdType [-1], Cmd [05 04 00 01 00 01 61 8E], Rec [05 04 02 0A 84 4E 33 ]wT = 18
19:32:09-> Modbus RTU OK  READ_CH0_AI,B[19200],F[N,8,1], , CmdType [-1], Cmd [05 04 00 00 00 01 30 4E], Rec [05 04 02 0D BC 4D D1 ]wT = 17
19:32:09-> Modbus RTU OK  READ_CH1_AI,B[19200],F[N,8,1], , CmdType [-1], Cmd [05 04 00 01 00 01 61 8E], Rec [05 04 02 0A 84 4E 33 ]wT = 19
19:32:09-> Modbus RTU OK  READ_CH0_AI,B[19200],F[N,8,1], , CmdType [-1], Cmd [05 04 00 00 00 01 30 4E], Rec [05 04 02 0D BC 4D D1 ]wT = 17
19:32:09-> Modbus RTU OK  READ_CH1_AI,B[19200],F[N,8,1], , CmdType [-1], Cmd [05 04 00 01 00 01 61 8E], Rec [05 04 02 0A 84 4E 33 ]wT = 18
19:32:09-> Modbus RTU OK  READ_CH0_AI,B[19200],F[N,8,1], , CmdType [-1], Cmd [05 04 00 00 00 01 30 4E], Rec [05 04 02 0D BC 4D D1 ]wT = 17
19:32:09-> Modbus RTU OK  READ_CH1_AI,B[19200],F[N,8,1], , CmdType [-1], Cmd [05 04 00 01 00 01 61 8E], Rec [05 04 02 0A 84 4E 33 ]wT = 18
19:32:09-> Modbus RTU OK  READ_CH0_AI,B[19200],F[N,8,1], , CmdType [-1], Cmd [05 04 00 00 00 01 30 4E], Rec [05 04 02 0D BB 0C 13 ]wT = 17
19:32:09-> Modbus RTU OK  READ_CH1_AI,B[19200],F[N,8,1], , CmdType [-1], Cmd [05 04 00 01 00 01 61 8E], Rec [05 04 02 0A 82 CE 31 ]wT = 19
19:32:10-> Modbus RTU OK  READ_CH0_AI,B[19200],F[N,8,1], , CmdType [-1], Cmd [05 04 00 00 00 01 30 4E], Rec [05 04 02 0D BB 0C 13 ]wT = 17
