17:18:01-> Modbus RTU OK  GET_MODULE_ADDRESS,B[115200],F[N,8,1], , CmdType [100], Cmd [01 03 01 E4 00 01 C5 C1], Rec [01 03 02 00 01 79 84 ]wT = 8
17:18:01-> Modbus RTU OK  GET_DL30X_TEMPERATURE_OFFSET,B[115200],F[N,8,1], , CmdType [10], Cmd [01 03 01 C0 00 01 85 CA], Rec [01 03 02 00 00 B8 44 ]wT = 24
17:18:02-> Modbus RTU OK  READ_CH0_AI,B[115200],F[N,8,1], , CmdType [-1], Cmd [01 04 00 00 00 01 31 CA], Rec [01 04 02 09 A1 7E D8 ]wT = 8
17:18:02-> Modbus RTU OK  READ_CH1_AI,B[115200],F[N,8,1], , CmdType [-1], Cmd [01 04 00 01 00 01 60 0A], Rec [01 04 02 0A 6A 3F BF ]wT = 8
17:18:03-> Modbus RTU OK  READ_CH0_AI,B[115200],F[N,8,1], , CmdType [-1], Cmd [01 04 00 00 00 01 31 CA], Rec [01 04 02 09 A2 3E D9 ]wT = 8
17:18:03-> Modbus RTU OK  READ_CH1_AI,B[115200],F[N,8,1], , CmdType [-1], Cmd [01 04 00 01 00 01 60 0A], Rec [01 04 02 0A 69 7F BE ]wT = 11
17:18:04-> Modbus RTU OK  READ_CH0_AI,B[115200],F[N,8,1], , CmdType [-1], Cmd [01 04 00 00 00 01 31 CA], Rec [01 04 02 09 A6 3F 1A ]wT = 11
17:18:04-> Modbus RTU OK  READ_CH1_AI,B[115200],F[N,8,1], , CmdType [-1], Cmd [01 04 00 01 00 01 60 0A], Rec [01 04 02 0A 6A 3F BF ]wT = 9
17:18:26-> Modbus RTU OK  GET_MODULE_ADDRESS,B[115200],F[N,8,1], , CmdType [100], Cmd [01 03 01 E4 00 01 C5 C1], Rec [01 03 02 00 01 79 84 ]wT = 8
17:18:26-> Modbus RTU OK  GET_DL30X_TEMPERATURE_OFFSET,B[115200],F[N,8,1], , CmdType [10], Cmd [01 03 01 C0 00 01 85 CA], Rec [01 03 02 00 00 B8 44 ]wT = 8
17:18:27-> Modbus RTU OK  READ_CH0_AI,B[115200],F[N,8,1], , CmdType [-1], Cmd [01 04 00 00 00 01 31 CA], Rec [01 04 02 09 B2 3F 15 ]wT = 39
17:18:27-> Modbus RTU OK  READ_CH1_AI,B[115200],F[N,8,1], , CmdType [-1], Cmd [01 04 00 01 00 01 60 0A], Rec [01 04 02 0A 69 7F BE ]wT = 8
17:18:28-> Modbus RTU OK  READ_CH0_AI,B[115200],F[N,8,1], , CmdType [-1], Cmd [01 04 00 00 00 01 31 CA], Rec [01 04 02 09 B2 3F 15 ]wT = 14
17:18:28-> Modbus RTU OK  READ_CH1_AI,B[115200],F[N,8,1], , CmdType [-1], Cmd [01 04 00 01 00 01 60 0A], Rec [01 04 02 0A 67 FE 7A ]wT = 8
17:18:29-> Modbus RTU OK  READ_CH0_AI,B[115200],F[N,8,1], , CmdType [-1], Cmd [01 04 00 00 00 01 31 CA], Rec [01 04 02 09 AD 7E DD ]wT = 8
17:18:29-> Modbus RTU OK  READ_CH1_AI,B[115200],F[N,8,1], , CmdType [-1], Cmd [01 04 00 01 00 01 60 0A], Rec [01 04 02 0A 69 7F BE ]wT = 9
17:18:30-> Modbus RTU OK  READ_CH0_AI,B[115200],F[N,8,1], , CmdType [-1], Cmd [01 04 00 00 00 01 31 CA], Rec [01 04 02 09 B2 3F 15 ]wT = 8
17:18:30-> Modbus RTU OK  READ_CH1_AI,B[115200],F[N,8,1], , CmdType [-1], Cmd [01 04 00 01 00 01 60 0A], Rec [01 04 02 0A 69 7F BE ]wT = 8
17:18:31-> Modbus RTU OK  READ_CH0_AI,B[115200],F[N,8,1], , CmdType [-1], Cmd [01 04 00 00 00 01 31 CA], Rec [01 04 02 09 AF FF 1C ]wT = 8
17:18:31-> Modbus RTU OK  READ_CH1_AI,B[115200],F[N,8,1], , CmdType [-1], Cmd [01 04 00 01 00 01 60 0A], Rec [01 04 02 0A 69 7F BE ]wT = 8
17:19:32-> Modbus RTU OK  GET_MODULE_ADDRESS,B[115200],F[N,8,1], , CmdType [100], Cmd [01 03 01 E4 00 01 C5 C1], Rec [01 03 02 00 01 79 84 ]wT = 8
17:19:32-> Modbus RTU OK  GET_DL30X_TEMPERATURE_OFFSET,B[115200],F[N,8,1], , CmdType [10], Cmd [01 03 01 C0 00 01 85 CA], Rec [01 03 02 00 00 B8 44 ]wT = 8
17:19:32-> Modbus RTU OK  READ_CH0_AI,B[115200],F[N,8,1], , CmdType [-1], Cmd [01 04 00 00 00 01 31 CA], Rec [01 04 02 09 78 BF 42 ]wT = 8
17:19:32-> Modbus RTU OK  READ_CH1_AI,B[115200],F[N,8,1], , CmdType [-1], Cmd [01 04 00 01 00 01 60 0A], Rec [01 04 02 0A 66 3F BA ]wT = 8
17:19:33-> Modbus RTU OK  READ_CH0_AI,B[115200],F[N,8,1], , CmdType [-1], Cmd [01 04 00 00 00 01 31 CA], Rec [01 04 02 09 78 BF 42 ]wT = 8
17:19:33-> Modbus RTU OK  READ_CH1_AI,B[115200],F[N,8,1], , CmdType [-1], Cmd [01 04 00 01 00 01 60 0A], Rec [01 04 02 0A 66 3F BA ]wT = 8
17:19:34-> Modbus RTU OK  READ_CH0_AI,B[115200],F[N,8,1], , CmdType [-1], Cmd [01 04 00 00 00 01 31 CA], Rec [01 04 02 09 75 7E 87 ]wT = 8
17:19:34-> Modbus RTU OK  READ_CH1_AI,B[115200],F[N,8,1], , CmdType [-1], Cmd [01 04 00 01 00 01 60 0A], Rec [01 04 02 0A 65 7F BB ]wT = 8
17:19:35-> Modbus RTU OK  READ_CH0_AI,B[115200],F[N,8,1], , CmdType [-1], Cmd [01 04 00 00 00 01 31 CA], Rec [01 04 02 09 75 7E 87 ]wT = 8
17:19:35-> Modbus RTU OK  READ_CH1_AI,B[115200],F[N,8,1], , CmdType [-1], Cmd [01 04 00 01 00 01 60 0A], Rec [01 04 02 0A 66 3F BA ]wT = 8
17:19:36-> Modbus RTU OK  READ_CH0_AI,B[115200],F[N,8,1], , CmdType [-1], Cmd [01 04 00 00 00 01 31 CA], Rec [01 04 02 09 76 3E 86 ]wT = 8
17:19:36-> Modbus RTU OK  READ_CH1_AI,B[115200],F[N,8,1], , CmdType [-1], Cmd [01 04 00 01 00 01 60 0A], Rec [01 04 02 0A 66 3F BA ]wT = 8
17:19:37-> Modbus RTU OK  READ_CH0_AI,B[115200],F[N,8,1], , CmdType [-1], Cmd [01 04 00 00 00 01 31 CA], Rec [01 04 02 09 76 3E 86 ]wT = 8
17:19:37-> Modbus RTU OK  READ_CH1_AI,B[115200],F[N,8,1], , CmdType [-1], Cmd [01 04 00 01 00 01 60 0A], Rec [01 04 02 0A 65 7F BB ]wT = 8
17:19:38-> Modbus RTU OK  READ_CH0_AI,B[115200],F[N,8,1], , CmdType [-1], Cmd [01 04 00 00 00 01 31 CA], Rec [01 04 02 09 78 BF 42 ]wT = 8
17:19:38-> Modbus RTU OK  READ_CH1_AI,B[115200],F[N,8,1], , CmdType [-1], Cmd [01 04 00 01 00 01 60 0A], Rec [01 04 02 0A 63 FF B9 ]wT = 8
17:19:39-> Modbus RTU OK  READ_CH0_AI,B[115200],F[N,8,1], , CmdType [-1], Cmd [01 04 00 00 00 01 31 CA], Rec [01 04 02 09 76 3E 86 ]wT = 8
17:19:39-> Modbus RTU OK  READ_CH1_AI,B[115200],F[N,8,1], , CmdType [-1], Cmd [01 04 00 01 00 01 60 0A], Rec [01 04 02 0A 65 7F BB ]wT = 8
17:19:39-> Modbus RTU OK  GET_MODULE_ADDRESS,B[115200],F[N,8,1], , CmdType [100], Cmd [01 03 01 E4 00 01 C5 C1], Rec [01 03 02 00 01 79 84 ]wT = 10
17:19:40-> Modbus RTU OK  READ_CH0_AI,B[115200],F[N,8,1], , CmdType [-1], Cmd [01 04 00 00 00 01 31 CA], Rec [01 04 02 09 76 3E 86 ]wT = 8
17:19:40-> Modbus RTU OK  READ_CH1_AI,B[115200],F[N,8,1], , CmdType [-1], Cmd [01 04 00 01 00 01 60 0A], Rec [01 04 02 0A 66 3F BA ]wT = 8
17:19:41-> Modbus RTU OK  READ_CH0_AI,B[115200],F[N,8,1], , CmdType [-1], Cmd [01 04 00 00 00 01 31 CA], Rec [01 04 02 09 72 3F 45 ]wT = 8
17:19:41-> Modbus RTU OK  READ_CH1_AI,B[115200],F[N,8,1], , CmdType [-1], Cmd [01 04 00 01 00 01 60 0A], Rec [01 04 02 0A 66 3F BA ]wT = 8
17:19:42-> Modbus RTU OK  READ_CH0_AI,B[115200],F[N,8,1], , CmdType [-1], Cmd [01 04 00 00 00 01 31 CA], Rec [01 04 02 09 78 BF 42 ]wT = 8
17:19:42-> Modbus RTU OK  READ_CH1_AI,B[115200],F[N,8,1], , CmdType [-1], Cmd [01 04 00 01 00 01 60 0A], Rec [01 04 02 0A 62 3E 79 ]wT = 8
17:19:43-> Modbus RTU OK  READ_CH0_AI,B[115200],F[N,8,1], , CmdType [-1], Cmd [01 04 00 00 00 01 31 CA], Rec [01 04 02 09 73 FE 85 ]wT = 8
17:19:43-> Modbus RTU OK  READ_CH1_AI,B[115200],F[N,8,1], , CmdType [-1], Cmd [01 04 00 01 00 01 60 0A], Rec [01 04 02 0A 65 7F BB ]wT = 8
17:19:44-> Modbus RTU OK  READ_CH0_AI,B[115200],F[N,8,1], , CmdType [-1], Cmd [01 04 00 00 00 01 31 CA], Rec [01 04 02 09 78 BF 42 ]wT = 8
17:19:44-> Modbus RTU OK  READ_CH1_AI,B[115200],F[N,8,1], , CmdType [-1], Cmd [01 04 00 01 00 01 60 0A], Rec [01 04 02 0A 65 7F BB ]wT = 8
17:19:45-> Modbus RTU OK  READ_CH0_AI,B[115200],F[N,8,1], , CmdType [-1], Cmd [01 04 00 00 00 01 31 CA], Rec [01 04 02 09 73 FE 85 ]wT = 8
17:19:45-> Modbus RTU OK  READ_CH1_AI,B[115200],F[N,8,1], , CmdType [-1], Cmd [01 04 00 01 00 01 60 0A], Rec [01 04 02 0A 65 7F BB ]wT = 9
17:19:46-> Modbus RTU OK  READ_CH0_AI,B[115200],F[N,8,1], , CmdType [-1], Cmd [01 04 00 00 00 01 31 CA], Rec [01 04 02 09 7D 7F 41 ]wT = 8
17:19:46-> Modbus RTU OK  READ_CH1_AI,B[115200],F[N,8,1], , CmdType [-1], Cmd [01 04 00 01 00 01 60 0A], Rec [01 04 02 0A 65 7F BB ]wT = 8
17:21:01-> Modbus RTU OK  GET_MODULE_ADDRESS,B[115200],F[N,8,1], , CmdType [100], Cmd [01 03 01 E4 00 01 C5 C1], Rec [01 03 02 00 01 79 84 ]wT = 8
17:21:01-> Modbus RTU OK  GET_DL30X_TEMPERATURE_OFFSET,B[115200],F[N,8,1], , CmdType [10], Cmd [01 03 01 C0 00 01 85 CA], Rec [01 03 02 00 00 B8 44 ]wT = 8
17:21:01-> Modbus RTU OK  READ_CH0_AI,B[115200],F[N,8,1], , CmdType [-1], Cmd [01 04 00 00 00 01 31 CA], Rec [01 04 02 09 84 BF 03 ]wT = 8
17:21:01-> Modbus RTU OK  READ_CH1_AI,B[115200],F[N,8,1], , CmdType [-1], Cmd [01 04 00 01 00 01 60 0A], Rec [01 04 02 0A 5F FF A8 ]wT = 9
17:21:01-> Modbus RTU OK  READ_CH0_AI,B[115200],F[N,8,1], , CmdType [-1], Cmd [01 04 00 00 00 01 31 CA], Rec [01 04 02 09 84 BF 03 ]wT = 8
17:21:01-> Modbus RTU OK  READ_CH1_AI,B[115200],F[N,8,1], , CmdType [-1], Cmd [01 04 00 01 00 01 60 0A], Rec [01 04 02 0A 5F FF A8 ]wT = 8
17:21:02-> Modbus RTU OK  READ_CH0_AI,B[115200],F[N,8,1], , CmdType [-1], Cmd [01 04 00 00 00 01 31 CA], Rec [01 04 02 09 84 BF 03 ]wT = 8
17:21:02-> Modbus RTU OK  READ_CH1_AI,B[115200],F[N,8,1], , CmdType [-1], Cmd [01 04 00 01 00 01 60 0A], Rec [01 04 02 0A 5F FF A8 ]wT = 8
17:21:02-> Modbus RTU OK  READ_CH0_AI,B[115200],F[N,8,1], , CmdType [-1], Cmd [01 04 00 00 00 01 31 CA], Rec [01 04 02 09 84 BF 03 ]wT = 8
17:21:02-> Modbus RTU OK  READ_CH1_AI,B[115200],F[N,8,1], , CmdType [-1], Cmd [01 04 00 01 00 01 60 0A], Rec [01 04 02 0A 5F FF A8 ]wT = 8
17:21:02-> Modbus RTU OK  READ_CH0_AI,B[115200],F[N,8,1], , CmdType [-1], Cmd [01 04 00 00 00 01 31 CA], Rec [01 04 02 09 84 BF 03 ]wT = 8
17:21:02-> Modbus RTU OK  READ_CH1_AI,B[115200],F[N,8,1], , CmdType [-1], Cmd [01 04 00 01 00 01 60 0A], Rec [01 04 02 0A 5F FF A8 ]wT = 8
17:21:02-> Modbus RTU OK  READ_CH0_AI,B[115200],F[N,8,1], , CmdType [-1], Cmd [01 04 00 00 00 01 31 CA], Rec [01 04 02 09 84 BF 03 ]wT = 8
17:21:02-> Modbus RTU OK  READ_CH1_AI,B[115200],F[N,8,1], , CmdType [-1], Cmd [01 04 00 01 00 01 60 0A], Rec [01 04 02 0A 5F FF A8 ]wT = 8
17:21:02-> Modbus RTU OK  READ_CH0_AI,B[115200],F[N,8,1], , CmdType [-1], Cmd [01 04 00 00 00 01 31 CA], Rec [01 04 02 09 85 7E C3 ]wT = 38
17:21:02-> Modbus RTU OK  READ_CH1_AI,B[115200],F[N,8,1], , CmdType [-1], Cmd [01 04 00 01 00 01 60 0A], Rec [01 04 02 0A 62 3E 79 ]wT = 8
17:21:02-> Modbus RTU OK  READ_CH0_AI,B[115200],F[N,8,1], , CmdType [-1], Cmd [01 04 00 00 00 01 31 CA], Rec [01 04 02 09 85 7E C3 ]wT = 8
17:21:02-> Modbus RTU OK  READ_CH1_AI,B[115200],F[N,8,1], , CmdType [-1], Cmd [01 04 00 01 00 01 60 0A], Rec [01 04 02 0A 62 3E 79 ]wT = 8
17:21:02-> Modbus RTU OK  READ_CH0_AI,B[115200],F[N,8,1], , CmdType [-1], Cmd [01 04 00 00 00 01 31 CA], Rec [01 04 02 09 85 7E C3 ]wT = 8
17:21:02-> Modbus RTU OK  READ_CH1_AI,B[115200],F[N,8,1], , CmdType [-1], Cmd [01 04 00 01 00 01 60 0A], Rec [01 04 02 0A 62 3E 79 ]wT = 10
17:21:02-> Modbus RTU OK  READ_CH0_AI,B[115200],F[N,8,1], , CmdType [-1], Cmd [01 04 00 00 00 01 31 CA], Rec [01 04 02 09 85 7E C3 ]wT = 8
17:21:02-> Modbus RTU OK  READ_CH1_AI,B[115200],F[N,8,1], , CmdType [-1], Cmd [01 04 00 01 00 01 60 0A], Rec [01 04 02 0A 62 3E 79 ]wT = 8
17:21:02-> Modbus RTU OK  READ_CH0_AI,B[115200],F[N,8,1], , CmdType [-1], Cmd [01 04 00 00 00 01 31 CA], Rec [01 04 02 09 85 7E C3 ]wT = 8
17:21:02-> Modbus RTU OK  READ_CH1_AI,B[115200],F[N,8,1], , CmdType [-1], Cmd [01 04 00 01 00 01 60 0A], Rec [01 04 02 0A 62 3E 79 ]wT = 8
17:21:03-> Modbus RTU OK  READ_CH0_AI,B[115200],F[N,8,1], , CmdType [-1], Cmd [01 04 00 00 00 01 31 CA], Rec [01 04 02 09 85 7E C3 ]wT = 8
17:21:03-> Modbus RTU OK  READ_CH1_AI,B[115200],F[N,8,1], , CmdType [-1], Cmd [01 04 00 01 00 01 60 0A], Rec [01 04 02 0A 62 3E 79 ]wT = 8
17:21:03-> Modbus RTU OK  READ_CH0_AI,B[115200],F[N,8,1], , CmdType [-1], Cmd [01 04 00 00 00 01 31 CA], Rec [01 04 02 09 85 7E C3 ]wT = 8
17:21:03-> Modbus RTU OK  READ_CH1_AI,B[115200],F[N,8,1], , CmdType [-1], Cmd [01 04 00 01 00 01 60 0A], Rec [01 04 02 0A 62 3E 79 ]wT = 8
17:21:03-> Modbus RTU OK  READ_CH0_AI,B[115200],F[N,8,1], , CmdType [-1], Cmd [01 04 00 00 00 01 31 CA], Rec [01 04 02 09 85 7E C3 ]wT = 8
17:21:03-> Modbus RTU OK  READ_CH1_AI,B[115200],F[N,8,1], , CmdType [-1], Cmd [01 04 00 01 00 01 60 0A], Rec [01 04 02 0A 62 3E 79 ]wT = 8
17:21:03-> Modbus RTU OK  READ_CH0_AI,B[115200],F[N,8,1], , CmdType [-1], Cmd [01 04 00 00 00 01 31 CA], Rec [01 04 02 09 85 7E C3 ]wT = 8
17:21:03-> Modbus RTU OK  READ_CH1_AI,B[115200],F[N,8,1], , CmdType [-1], Cmd [01 04 00 01 00 01 60 0A], Rec [01 04 02 0A 62 3E 79 ]wT = 8
17:21:03-> Modbus RTU OK  READ_CH0_AI,B[115200],F[N,8,1], , CmdType [-1], Cmd [01 04 00 00 00 01 31 CA], Rec [01 04 02 09 80 BE C0 ]wT = 24
17:21:03-> Modbus RTU OK  READ_CH1_AI,B[115200],F[N,8,1], , CmdType [-1], Cmd [01 04 00 01 00 01 60 0A], Rec [01 04 02 0A 5F FF A8 ]wT = 8
17:21:03-> Modbus RTU OK  READ_CH0_AI,B[115200],F[N,8,1], , CmdType [-1], Cmd [01 04 00 00 00 01 31 CA], Rec [01 04 02 09 80 BE C0 ]wT = 8
17:21:03-> Modbus RTU OK  READ_CH1_AI,B[115200],F[N,8,1], , CmdType [-1], Cmd [01 04 00 01 00 01 60 0A], Rec [01 04 02 0A 5F FF A8 ]wT = 8
17:21:03-> Modbus RTU OK  READ_CH0_AI,B[115200],F[N,8,1], , CmdType [-1], Cmd [01 04 00 00 00 01 31 CA], Rec [01 04 02 09 80 BE C0 ]wT = 8
17:21:03-> Modbus RTU OK  READ_CH1_AI,B[115200],F[N,8,1], , CmdType [-1], Cmd [01 04 00 01 00 01 60 0A], Rec [01 04 02 0A 5F FF A8 ]wT = 8
17:21:03-> Modbus RTU OK  READ_CH0_AI,B[115200],F[N,8,1], , CmdType [-1], Cmd [01 04 00 00 00 01 31 CA], Rec [01 04 02 09 80 BE C0 ]wT = 8
17:21:03-> Modbus RTU OK  READ_CH1_AI,B[115200],F[N,8,1], , CmdType [-1], Cmd [01 04 00 01 00 01 60 0A], Rec [01 04 02 0A 5F FF A8 ]wT = 8
17:21:03-> Modbus RTU OK  READ_CH0_AI,B[115200],F[N,8,1], , CmdType [-1], Cmd [01 04 00 00 00 01 31 CA], Rec [01 04 02 09 80 BE C0 ]wT = 8
17:21:03-> Modbus RTU OK  READ_CH1_AI,B[115200],F[N,8,1], , CmdType [-1], Cmd [01 04 00 01 00 01 60 0A], Rec [01 04 02 0A 5F FF A8 ]wT = 8
17:21:04-> Modbus RTU OK  READ_CH0_AI,B[115200],F[N,8,1], , CmdType [-1], Cmd [01 04 00 00 00 01 31 CA], Rec [01 04 02 09 80 BE C0 ]wT = 8
17:21:04-> Modbus RTU OK  READ_CH1_AI,B[115200],F[N,8,1], , CmdType [-1], Cmd [01 04 00 01 00 01 60 0A], Rec [01 04 02 0A 5F FF A8 ]wT = 8
17:21:04-> Modbus RTU OK  READ_CH0_AI,B[115200],F[N,8,1], , CmdType [-1], Cmd [01 04 00 00 00 01 31 CA], Rec [01 04 02 09 80 BE C0 ]wT = 8
17:21:04-> Modbus RTU OK  READ_CH1_AI,B[115200],F[N,8,1], , CmdType [-1], Cmd [01 04 00 01 00 01 60 0A], Rec [01 04 02 0A 5F FF A8 ]wT = 8
17:21:04-> Modbus RTU OK  READ_CH0_AI,B[115200],F[N,8,1], , CmdType [-1], Cmd [01 04 00 00 00 01 31 CA], Rec [01 04 02 09 80 BE C0 ]wT = 8
17:21:04-> Modbus RTU OK  READ_CH1_AI,B[115200],F[N,8,1], , CmdType [-1], Cmd [01 04 00 01 00 01 60 0A], Rec [01 04 02 0A 5F FF A8 ]wT = 8
17:21:04-> Modbus RTU OK  READ_CH0_AI,B[115200],F[N,8,1], , CmdType [-1], Cmd [01 04 00 00 00 01 31 CA], Rec [01 04 02 09 80 BE C0 ]wT = 8
17:21:04-> Modbus RTU OK  READ_CH1_AI,B[115200],F[N,8,1], , CmdType [-1], Cmd [01 04 00 01 00 01 60 0A], Rec [01 04 02 0A 5F FF A8 ]wT = 8
17:21:04-> Modbus RTU OK  READ_CH0_AI,B[115200],F[N,8,1], , CmdType [-1], Cmd [01 04 00 00 00 01 31 CA], Rec [01 04 02 09 86 3E C2 ]wT = 24
17:21:04-> Modbus RTU OK  READ_CH1_AI,B[115200],F[N,8,1], , CmdType [-1], Cmd [01 04 00 01 00 01 60 0A], Rec [01 04 02 0A 61 7E 78 ]wT = 8
17:21:04-> Modbus RTU OK  READ_CH0_AI,B[115200],F[N,8,1], , CmdType [-1], Cmd [01 04 00 00 00 01 31 CA], Rec [01 04 02 09 86 3E C2 ]wT = 8
17:21:04-> Modbus RTU OK  READ_CH1_AI,B[115200],F[N,8,1], , CmdType [-1], Cmd [01 04 00 01 00 01 60 0A], Rec [01 04 02 0A 61 7E 78 ]wT = 8
17:21:04-> Modbus RTU OK  READ_CH0_AI,B[115200],F[N,8,1], , CmdType [-1], Cmd [01 04 00 00 00 01 31 CA], Rec [01 04 02 09 86 3E C2 ]wT = 8
17:21:04-> Modbus RTU OK  READ_CH1_AI,B[115200],F[N,8,1], , CmdType [-1], Cmd [01 04 00 01 00 01 60 0A], Rec [01 04 02 0A 61 7E 78 ]wT = 8
17:21:04-> Modbus RTU OK  READ_CH0_AI,B[115200],F[N,8,1], , CmdType [-1], Cmd [01 04 00 00 00 01 31 CA], Rec [01 04 02 09 86 3E C2 ]wT = 8
17:21:04-> Modbus RTU OK  READ_CH1_AI,B[115200],F[N,8,1], , CmdType [-1], Cmd [01 04 00 01 00 01 60 0A], Rec [01 04 02 0A 61 7E 78 ]wT = 8
17:21:04-> Modbus RTU OK  READ_CH0_AI,B[115200],F[N,8,1], , CmdType [-1], Cmd [01 04 00 00 00 01 31 CA], Rec [01 04 02 09 86 3E C2 ]wT = 8
17:21:04-> Modbus RTU OK  READ_CH1_AI,B[115200],F[N,8,1], , CmdType [-1], Cmd [01 04 00 01 00 01 60 0A], Rec [01 04 02 0A 61 7E 78 ]wT = 8
17:21:04-> Modbus RTU OK  READ_CH0_AI,B[115200],F[N,8,1], , CmdType [-1], Cmd [01 04 00 00 00 01 31 CA], Rec [01 04 02 09 86 3E C2 ]wT = 8
17:21:04-> Modbus RTU OK  READ_CH1_AI,B[115200],F[N,8,1], , CmdType [-1], Cmd [01 04 00 01 00 01 60 0A], Rec [01 04 02 0A 61 7E 78 ]wT = 8
17:21:05-> Modbus RTU OK  READ_CH0_AI,B[115200],F[N,8,1], , CmdType [-1], Cmd [01 04 00 00 00 01 31 CA], Rec [01 04 02 09 86 3E C2 ]wT = 8
17:21:05-> Modbus RTU OK  READ_CH1_AI,B[115200],F[N,8,1], , CmdType [-1], Cmd [01 04 00 01 00 01 60 0A], Rec [01 04 02 0A 61 7E 78 ]wT = 8
17:21:05-> Modbus RTU OK  READ_CH0_AI,B[115200],F[N,8,1], , CmdType [-1], Cmd [01 04 00 00 00 01 31 CA], Rec [01 04 02 09 86 3E C2 ]wT = 8
17:21:05-> Modbus RTU OK  READ_CH1_AI,B[115200],F[N,8,1], , CmdType [-1], Cmd [01 04 00 01 00 01 60 0A], Rec [01 04 02 0A 61 7E 78 ]wT = 8
17:21:05-> Modbus RTU OK  READ_CH0_AI,B[115200],F[N,8,1], , CmdType [-1], Cmd [01 04 00 00 00 01 31 CA], Rec [01 04 02 09 86 3E C2 ]wT = 8
17:21:05-> Modbus RTU OK  READ_CH1_AI,B[115200],F[N,8,1], , CmdType [-1], Cmd [01 04 00 01 00 01 60 0A], Rec [01 04 02 0A 61 7E 78 ]wT = 8
17:21:05-> Modbus RTU OK  READ_CH0_AI,B[115200],F[N,8,1], , CmdType [-1], Cmd [01 04 00 00 00 01 31 CA], Rec [01 04 02 09 81 7F 00 ]wT = 29
17:21:05-> Modbus RTU OK  READ_CH1_AI,B[115200],F[N,8,1], , CmdType [-1], Cmd [01 04 00 01 00 01 60 0A], Rec [01 04 02 0A 61 7E 78 ]wT = 8
17:21:05-> Modbus RTU OK  READ_CH0_AI,B[115200],F[N,8,1], , CmdType [-1], Cmd [01 04 00 00 00 01 31 CA], Rec [01 04 02 09 81 7F 00 ]wT = 8
17:21:05-> Modbus RTU OK  READ_CH1_AI,B[115200],F[N,8,1], , CmdType [-1], Cmd [01 04 00 01 00 01 60 0A], Rec [01 04 02 0A 61 7E 78 ]wT = 8
17:21:05-> Modbus RTU OK  READ_CH0_AI,B[115200],F[N,8,1], , CmdType [-1], Cmd [01 04 00 00 00 01 31 CA], Rec [01 04 02 09 81 7F 00 ]wT = 8
17:21:05-> Modbus RTU OK  READ_CH1_AI,B[115200],F[N,8,1], , CmdType [-1], Cmd [01 04 00 01 00 01 60 0A], Rec [01 04 02 0A 61 7E 78 ]wT = 8
17:21:05-> Modbus RTU OK  READ_CH0_AI,B[115200],F[N,8,1], , CmdType [-1], Cmd [01 04 00 00 00 01 31 CA], Rec [01 04 02 09 81 7F 00 ]wT = 8
17:21:05-> Modbus RTU OK  READ_CH1_AI,B[115200],F[N,8,1], , CmdType [-1], Cmd [01 04 00 01 00 01 60 0A], Rec [01 04 02 0A 61 7E 78 ]wT = 8
17:21:05-> Modbus RTU OK  READ_CH0_AI,B[115200],F[N,8,1], , CmdType [-1], Cmd [01 04 00 00 00 01 31 CA], Rec [01 04 02 09 81 7F 00 ]wT = 8
17:21:05-> Modbus RTU OK  READ_CH1_AI,B[115200],F[N,8,1], , CmdType [-1], Cmd [01 04 00 01 00 01 60 0A], Rec [01 04 02 0A 61 7E 78 ]wT = 8
17:21:05-> Modbus RTU OK  READ_CH0_AI,B[115200],F[N,8,1], , CmdType [-1], Cmd [01 04 00 00 00 01 31 CA], Rec [01 04 02 09 81 7F 00 ]wT = 8
17:21:05-> Modbus RTU OK  READ_CH1_AI,B[115200],F[N,8,1], , CmdType [-1], Cmd [01 04 00 01 00 01 60 0A], Rec [01 04 02 0A 61 7E 78 ]wT = 8
17:21:06-> Modbus RTU OK  READ_CH0_AI,B[115200],F[N,8,1], , CmdType [-1], Cmd [01 04 00 00 00 01 31 CA], Rec [01 04 02 09 81 7F 00 ]wT = 8
17:21:06-> Modbus RTU OK  READ_CH1_AI,B[115200],F[N,8,1], , CmdType [-1], Cmd [01 04 00 01 00 01 60 0A], Rec [01 04 02 0A 61 7E 78 ]wT = 8
17:21:06-> Modbus RTU OK  READ_CH0_AI,B[115200],F[N,8,1], , CmdType [-1], Cmd [01 04 00 00 00 01 31 CA], Rec [01 04 02 09 81 7F 00 ]wT = 8
17:21:06-> Modbus RTU OK  READ_CH1_AI,B[115200],F[N,8,1], , CmdType [-1], Cmd [01 04 00 01 00 01 60 0A], Rec [01 04 02 0A 61 7E 78 ]wT = 8
17:21:06-> Modbus RTU OK  READ_CH0_AI,B[115200],F[N,8,1], , CmdType [-1], Cmd [01 04 00 00 00 01 31 CA], Rec [01 04 02 09 81 7F 00 ]wT = 8
17:21:06-> Modbus RTU OK  READ_CH1_AI,B[115200],F[N,8,1], , CmdType [-1], Cmd [01 04 00 01 00 01 60 0A], Rec [01 04 02 0A 61 7E 78 ]wT = 8
17:21:06-> Modbus RTU OK  READ_CH0_AI,B[115200],F[N,8,1], , CmdType [-1], Cmd [01 04 00 00 00 01 31 CA], Rec [01 04 02 09 80 BE C0 ]wT = 18
17:21:06-> Modbus RTU OK  READ_CH1_AI,B[115200],F[N,8,1], , CmdType [-1], Cmd [01 04 00 01 00 01 60 0A], Rec [01 04 02 0A 63 FF B9 ]wT = 8
17:21:06-> Modbus RTU OK  READ_CH0_AI,B[115200],F[N,8,1], , CmdType [-1], Cmd [01 04 00 00 00 01 31 CA], Rec [01 04 02 09 80 BE C0 ]wT = 8
17:21:06-> Modbus RTU OK  READ_CH1_AI,B[115200],F[N,8,1], , CmdType [-1], Cmd [01 04 00 01 00 01 60 0A], Rec [01 04 02 0A 63 FF B9 ]wT = 8
17:21:06-> Modbus RTU OK  READ_CH0_AI,B[115200],F[N,8,1], , CmdType [-1], Cmd [01 04 00 00 00 01 31 CA], Rec [01 04 02 09 80 BE C0 ]wT = 8
17:21:06-> Modbus RTU OK  READ_CH1_AI,B[115200],F[N,8,1], , CmdType [-1], Cmd [01 04 00 01 00 01 60 0A], Rec [01 04 02 0A 63 FF B9 ]wT = 8
17:21:06-> Modbus RTU OK  READ_CH0_AI,B[115200],F[N,8,1], , CmdType [-1], Cmd [01 04 00 00 00 01 31 CA], Rec [01 04 02 09 80 BE C0 ]wT = 8
17:21:06-> Modbus RTU OK  READ_CH1_AI,B[115200],F[N,8,1], , CmdType [-1], Cmd [01 04 00 01 00 01 60 0A], Rec [01 04 02 0A 63 FF B9 ]wT = 8
17:21:06-> Modbus RTU OK  READ_CH0_AI,B[115200],F[N,8,1], , CmdType [-1], Cmd [01 04 00 00 00 01 31 CA], Rec [01 04 02 09 80 BE C0 ]wT = 8
17:21:06-> Modbus RTU OK  READ_CH1_AI,B[115200],F[N,8,1], , CmdType [-1], Cmd [01 04 00 01 00 01 60 0A], Rec [01 04 02 0A 63 FF B9 ]wT = 8
17:21:06-> Modbus RTU OK  READ_CH0_AI,B[115200],F[N,8,1], , CmdType [-1], Cmd [01 04 00 00 00 01 31 CA], Rec [01 04 02 09 80 BE C0 ]wT = 8
17:21:06-> Modbus RTU OK  READ_CH1_AI,B[115200],F[N,8,1], , CmdType [-1], Cmd [01 04 00 01 00 01 60 0A], Rec [01 04 02 0A 63 FF B9 ]wT = 8
17:21:07-> Modbus RTU OK  READ_CH0_AI,B[115200],F[N,8,1], , CmdType [-1], Cmd [01 04 00 00 00 01 31 CA], Rec [01 04 02 09 80 BE C0 ]wT = 8
17:21:07-> Modbus RTU OK  READ_CH1_AI,B[115200],F[N,8,1], , CmdType [-1], Cmd [01 04 00 01 00 01 60 0A], Rec [01 04 02 0A 63 FF B9 ]wT = 8
17:21:07-> Modbus RTU OK  READ_CH0_AI,B[115200],F[N,8,1], , CmdType [-1], Cmd [01 04 00 00 00 01 31 CA], Rec [01 04 02 09 80 BE C0 ]wT = 8
17:21:07-> Modbus RTU OK  READ_CH1_AI,B[115200],F[N,8,1], , CmdType [-1], Cmd [01 04 00 01 00 01 60 0A], Rec [01 04 02 0A 63 FF B9 ]wT = 8
17:21:07-> Modbus RTU OK  READ_CH0_AI,B[115200],F[N,8,1], , CmdType [-1], Cmd [01 04 00 00 00 01 31 CA], Rec [01 04 02 09 80 BE C0 ]wT = 8
17:21:07-> Modbus RTU OK  READ_CH1_AI,B[115200],F[N,8,1], , CmdType [-1], Cmd [01 04 00 01 00 01 60 0A], Rec [01 04 02 0A 63 FF B9 ]wT = 8
17:21:07-> Modbus RTU OK  READ_CH0_AI,B[115200],F[N,8,1], , CmdType [-1], Cmd [01 04 00 00 00 01 31 CA], Rec [01 04 02 09 83 FE C1 ]wT = 14
17:21:07-> Modbus RTU OK  READ_CH1_AI,B[115200],F[N,8,1], , CmdType [-1], Cmd [01 04 00 01 00 01 60 0A], Rec [01 04 02 0A 5F FF A8 ]wT = 8
17:21:07-> Modbus RTU OK  READ_CH0_AI,B[115200],F[N,8,1], , CmdType [-1], Cmd [01 04 00 00 00 01 31 CA], Rec [01 04 02 09 83 FE C1 ]wT = 9
17:21:07-> Modbus RTU OK  READ_CH1_AI,B[115200],F[N,8,1], , CmdType [-1], Cmd [01 04 00 01 00 01 60 0A], Rec [01 04 02 0A 5F FF A8 ]wT = 8
17:21:07-> Modbus RTU OK  READ_CH0_AI,B[115200],F[N,8,1], , CmdType [-1], Cmd [01 04 00 00 00 01 31 CA], Rec [01 04 02 09 83 FE C1 ]wT = 8
17:21:07-> Modbus RTU OK  READ_CH1_AI,B[115200],F[N,8,1], , CmdType [-1], Cmd [01 04 00 01 00 01 60 0A], Rec [01 04 02 0A 5F FF A8 ]wT = 8
17:21:07-> Modbus RTU OK  READ_CH0_AI,B[115200],F[N,8,1], , CmdType [-1], Cmd [01 04 00 00 00 01 31 CA], Rec [01 04 02 09 83 FE C1 ]wT = 8
17:21:07-> Modbus RTU OK  READ_CH1_AI,B[115200],F[N,8,1], , CmdType [-1], Cmd [01 04 00 01 00 01 60 0A], Rec [01 04 02 0A 5F FF A8 ]wT = 8
17:21:07-> Modbus RTU OK  READ_CH0_AI,B[115200],F[N,8,1], , CmdType [-1], Cmd [01 04 00 00 00 01 31 CA], Rec [01 04 02 09 83 FE C1 ]wT = 8
17:21:07-> Modbus RTU OK  READ_CH1_AI,B[115200],F[N,8,1], , CmdType [-1], Cmd [01 04 00 01 00 01 60 0A], Rec [01 04 02 0A 5F FF A8 ]wT = 8
17:21:07-> Modbus RTU OK  READ_CH0_AI,B[115200],F[N,8,1], , CmdType [-1], Cmd [01 04 00 00 00 01 31 CA], Rec [01 04 02 09 83 FE C1 ]wT = 8
17:21:07-> Modbus RTU OK  READ_CH1_AI,B[115200],F[N,8,1], , CmdType [-1], Cmd [01 04 00 01 00 01 60 0A], Rec [01 04 02 0A 5F FF A8 ]wT = 8
17:21:08-> Modbus RTU OK  READ_CH0_AI,B[115200],F[N,8,1], , CmdType [-1], Cmd [01 04 00 00 00 01 31 CA], Rec [01 04 02 09 83 FE C1 ]wT = 8
17:21:08-> Modbus RTU OK  READ_CH1_AI,B[115200],F[N,8,1], , CmdType [-1], Cmd [01 04 00 01 00 01 60 0A], Rec [01 04 02 0A 5F FF A8 ]wT = 8
17:21:08-> Modbus RTU OK  READ_CH0_AI,B[115200],F[N,8,1], , CmdType [-1], Cmd [01 04 00 00 00 01 31 CA], Rec [01 04 02 09 83 FE C1 ]wT = 8
17:21:08-> Modbus RTU OK  READ_CH1_AI,B[115200],F[N,8,1], , CmdType [-1], Cmd [01 04 00 01 00 01 60 0A], Rec [01 04 02 0A 5F FF A8 ]wT = 8
17:21:08-> Modbus RTU OK  READ_CH0_AI,B[115200],F[N,8,1], , CmdType [-1], Cmd [01 04 00 00 00 01 31 CA], Rec [01 04 02 09 83 FE C1 ]wT = 8
17:21:08-> Modbus RTU OK  READ_CH1_AI,B[115200],F[N,8,1], , CmdType [-1], Cmd [01 04 00 01 00 01 60 0A], Rec [01 04 02 0A 5F FF A8 ]wT = 8
17:21:08-> Modbus RTU OK  READ_CH0_AI,B[115200],F[N,8,1], , CmdType [-1], Cmd [01 04 00 00 00 01 31 CA], Rec [01 04 02 09 81 7F 00 ]wT = 14
17:21:08-> Modbus RTU OK  READ_CH1_AI,B[115200],F[N,8,1], , CmdType [-1], Cmd [01 04 00 01 00 01 60 0A], Rec [01 04 02 0A 61 7E 78 ]wT = 8
17:21:08-> Modbus RTU OK  READ_CH0_AI,B[115200],F[N,8,1], , CmdType [-1], Cmd [01 04 00 00 00 01 31 CA], Rec [01 04 02 09 81 7F 00 ]wT = 8
17:21:08-> Modbus RTU OK  READ_CH1_AI,B[115200],F[N,8,1], , CmdType [-1], Cmd [01 04 00 01 00 01 60 0A], Rec [01 04 02 0A 61 7E 78 ]wT = 8
17:21:08-> Modbus RTU OK  READ_CH0_AI,B[115200],F[N,8,1], , CmdType [-1], Cmd [01 04 00 00 00 01 31 CA], Rec [01 04 02 09 81 7F 00 ]wT = 8
17:21:08-> Modbus RTU OK  READ_CH1_AI,B[115200],F[N,8,1], , CmdType [-1], Cmd [01 04 00 01 00 01 60 0A], Rec [01 04 02 0A 61 7E 78 ]wT = 8
17:21:08-> Modbus RTU OK  READ_CH0_AI,B[115200],F[N,8,1], , CmdType [-1], Cmd [01 04 00 00 00 01 31 CA], Rec [01 04 02 09 81 7F 00 ]wT = 8
17:21:08-> Modbus RTU OK  READ_CH1_AI,B[115200],F[N,8,1], , CmdType [-1], Cmd [01 04 00 01 00 01 60 0A], Rec [01 04 02 0A 61 7E 78 ]wT = 8
17:21:08-> Modbus RTU OK  READ_CH0_AI,B[115200],F[N,8,1], , CmdType [-1], Cmd [01 04 00 00 00 01 31 CA], Rec [01 04 02 09 81 7F 00 ]wT = 8
17:21:08-> Modbus RTU OK  READ_CH1_AI,B[115200],F[N,8,1], , CmdType [-1], Cmd [01 04 00 01 00 01 60 0A], Rec [01 04 02 0A 61 7E 78 ]wT = 8
17:21:08-> Modbus RTU OK  READ_CH0_AI,B[115200],F[N,8,1], , CmdType [-1], Cmd [01 04 00 00 00 01 31 CA], Rec [01 04 02 09 81 7F 00 ]wT = 8
17:21:08-> Modbus RTU OK  READ_CH1_AI,B[115200],F[N,8,1], , CmdType [-1], Cmd [01 04 00 01 00 01 60 0A], Rec [01 04 02 0A 61 7E 78 ]wT = 8
17:21:09-> Modbus RTU OK  READ_CH0_AI,B[115200],F[N,8,1], , CmdType [-1], Cmd [01 04 00 00 00 01 31 CA], Rec [01 04 02 09 81 7F 00 ]wT = 8
17:21:09-> Modbus RTU OK  READ_CH1_AI,B[115200],F[N,8,1], , CmdType [-1], Cmd [01 04 00 01 00 01 60 0A], Rec [01 04 02 0A 61 7E 78 ]wT = 8
17:21:09-> Modbus RTU OK  READ_CH0_AI,B[115200],F[N,8,1], , CmdType [-1], Cmd [01 04 00 00 00 01 31 CA], Rec [01 04 02 09 81 7F 00 ]wT = 8
17:21:09-> Modbus RTU OK  READ_CH1_AI,B[115200],F[N,8,1], , CmdType [-1], Cmd [01 04 00 01 00 01 60 0A], Rec [01 04 02 0A 61 7E 78 ]wT = 8
17:21:09-> Modbus RTU OK  READ_CH0_AI,B[115200],F[N,8,1], , CmdType [-1], Cmd [01 04 00 00 00 01 31 CA], Rec [01 04 02 09 81 7F 00 ]wT = 8
17:21:09-> Modbus RTU OK  READ_CH1_AI,B[115200],F[N,8,1], , CmdType [-1], Cmd [01 04 00 01 00 01 60 0A], Rec [01 04 02 0A 61 7E 78 ]wT = 8
17:21:09-> Modbus RTU OK  READ_CH0_AI,B[115200],F[N,8,1], , CmdType [-1], Cmd [01 04 00 00 00 01 31 CA], Rec [01 04 02 09 7E 3F 40 ]wT = 14
17:21:09-> Modbus RTU OK  READ_CH1_AI,B[115200],F[N,8,1], , CmdType [-1], Cmd [01 04 00 01 00 01 60 0A], Rec [01 04 02 0A 5F FF A8 ]wT = 8
17:21:09-> Modbus RTU OK  READ_CH0_AI,B[115200],F[N,8,1], , CmdType [-1], Cmd [01 04 00 00 00 01 31 CA], Rec [01 04 02 09 7E 3F 40 ]wT = 8
17:21:09-> Modbus RTU OK  READ_CH1_AI,B[115200],F[N,8,1], , CmdType [-1], Cmd [01 04 00 01 00 01 60 0A], Rec [01 04 02 0A 5F FF A8 ]wT = 8
17:21:09-> Modbus RTU OK  READ_CH0_AI,B[115200],F[N,8,1], , CmdType [-1], Cmd [01 04 00 00 00 01 31 CA], Rec [01 04 02 09 7E 3F 40 ]wT = 8
17:21:09-> Modbus RTU OK  READ_CH1_AI,B[115200],F[N,8,1], , CmdType [-1], Cmd [01 04 00 01 00 01 60 0A], Rec [01 04 02 0A 5F FF A8 ]wT = 8
17:21:09-> Modbus RTU OK  READ_CH0_AI,B[115200],F[N,8,1], , CmdType [-1], Cmd [01 04 00 00 00 01 31 CA], Rec [01 04 02 09 7E 3F 40 ]wT = 8
17:21:09-> Modbus RTU OK  READ_CH1_AI,B[115200],F[N,8,1], , CmdType [-1], Cmd [01 04 00 01 00 01 60 0A], Rec [01 04 02 0A 5F FF A8 ]wT = 8
17:21:09-> Modbus RTU OK  READ_CH0_AI,B[115200],F[N,8,1], , CmdType [-1], Cmd [01 04 00 00 00 01 31 CA], Rec [01 04 02 09 7E 3F 40 ]wT = 8
17:21:09-> Modbus RTU OK  READ_CH1_AI,B[115200],F[N,8,1], , CmdType [-1], Cmd [01 04 00 01 00 01 60 0A], Rec [01 04 02 0A 5F FF A8 ]wT = 8
17:21:09-> Modbus RTU OK  READ_CH0_AI,B[115200],F[N,8,1], , CmdType [-1], Cmd [01 04 00 00 00 01 31 CA], Rec [01 04 02 09 7E 3F 40 ]wT = 8
17:21:09-> Modbus RTU OK  READ_CH1_AI,B[115200],F[N,8,1], , CmdType [-1], Cmd [01 04 00 01 00 01 60 0A], Rec [01 04 02 0A 5F FF A8 ]wT = 8
17:21:10-> Modbus RTU OK  READ_CH0_AI,B[115200],F[N,8,1], , CmdType [-1], Cmd [01 04 00 00 00 01 31 CA], Rec [01 04 02 09 7E 3F 40 ]wT = 8
17:21:10-> Modbus RTU OK  READ_CH1_AI,B[115200],F[N,8,1], , CmdType [-1], Cmd [01 04 00 01 00 01 60 0A], Rec [01 04 02 0A 5F FF A8 ]wT = 8
17:21:10-> Modbus RTU OK  READ_CH0_AI,B[115200],F[N,8,1], , CmdType [-1], Cmd [01 04 00 00 00 01 31 CA], Rec [01 04 02 09 7E 3F 40 ]wT = 8
17:21:10-> Modbus RTU OK  READ_CH1_AI,B[115200],F[N,8,1], , CmdType [-1], Cmd [01 04 00 01 00 01 60 0A], Rec [01 04 02 0A 5F FF A8 ]wT = 8
17:21:10-> Modbus RTU OK  READ_CH0_AI,B[115200],F[N,8,1], , CmdType [-1], Cmd [01 04 00 00 00 01 31 CA], Rec [01 04 02 09 7E 3F 40 ]wT = 8
17:21:10-> Modbus RTU OK  READ_CH1_AI,B[115200],F[N,8,1], , CmdType [-1], Cmd [01 04 00 01 00 01 60 0A], Rec [01 04 02 0A 5F FF A8 ]wT = 9
17:21:10-> Modbus RTU OK  READ_CH0_AI,B[115200],F[N,8,1], , CmdType [-1], Cmd [01 04 00 00 00 01 31 CA], Rec [01 04 02 09 7E 3F 40 ]wT = 13
17:21:10-> Modbus RTU OK  READ_CH1_AI,B[115200],F[N,8,1], , CmdType [-1], Cmd [01 04 00 01 00 01 60 0A], Rec [01 04 02 0A 5F FF A8 ]wT = 8
17:21:10-> Modbus RTU OK  READ_CH0_AI,B[115200],F[N,8,1], , CmdType [-1], Cmd [01 04 00 00 00 01 31 CA], Rec [01 04 02 09 7E 3F 40 ]wT = 8
17:21:10-> Modbus RTU OK  READ_CH1_AI,B[115200],F[N,8,1], , CmdType [-1], Cmd [01 04 00 01 00 01 60 0A], Rec [01 04 02 0A 5F FF A8 ]wT = 8
17:21:10-> Modbus RTU OK  READ_CH0_AI,B[115200],F[N,8,1], , CmdType [-1], Cmd [01 04 00 00 00 01 31 CA], Rec [01 04 02 09 7E 3F 40 ]wT = 8
17:21:10-> Modbus RTU OK  READ_CH1_AI,B[115200],F[N,8,1], , CmdType [-1], Cmd [01 04 00 01 00 01 60 0A], Rec [01 04 02 0A 5F FF A8 ]wT = 8
17:43:21-> Modbus RTU OK  GET_MODULE_ADDRESS,B[115200],F[N,8,1], , CmdType [100], Cmd [01 03 01 E4 00 01 C5 C1], Rec [01 03 02 00 01 79 84 ]wT = 14
17:43:21-> Modbus RTU OK  GET_DL30X_TEMPERATURE_OFFSET,B[115200],F[N,8,1], , CmdType [10], Cmd [01 03 01 C0 00 01 85 CA], Rec [01 03 02 00 00 B8 44 ]wT = 8
17:43:21-> Modbus RTU OK  READ_CH0_AI,B[115200],F[N,8,1], , CmdType [-1], Cmd [01 04 00 00 00 01 31 CA], Rec [01 04 02 09 A2 3E D9 ]wT = 10
17:43:21-> Modbus RTU OK  READ_CH1_AI,B[115200],F[N,8,1], , CmdType [-1], Cmd [01 04 00 01 00 01 60 0A], Rec [01 04 02 0A 29 7E 4E ]wT = 9
17:43:21-> Modbus RTU OK  READ_CH0_AI,B[115200],F[N,8,1], , CmdType [-1], Cmd [01 04 00 00 00 01 31 CA], Rec [01 04 02 09 A2 3E D9 ]wT = 8
17:43:21-> Modbus RTU OK  READ_CH1_AI,B[115200],F[N,8,1], , CmdType [-1], Cmd [01 04 00 01 00 01 60 0A], Rec [01 04 02 0A 29 7E 4E ]wT = 8
17:43:21-> Modbus RTU OK  READ_CH0_AI,B[115200],F[N,8,1], , CmdType [-1], Cmd [01 04 00 00 00 01 31 CA], Rec [01 04 02 09 A2 3E D9 ]wT = 8
17:43:21-> Modbus RTU OK  READ_CH1_AI,B[115200],F[N,8,1], , CmdType [-1], Cmd [01 04 00 01 00 01 60 0A], Rec [01 04 02 0A 29 7E 4E ]wT = 8
17:43:21-> Modbus RTU OK  READ_CH0_AI,B[115200],F[N,8,1], , CmdType [-1], Cmd [01 04 00 00 00 01 31 CA], Rec [01 04 02 09 A2 3E D9 ]wT = 8
17:43:21-> Modbus RTU OK  READ_CH1_AI,B[115200],F[N,8,1], , CmdType [-1], Cmd [01 04 00 01 00 01 60 0A], Rec [01 04 02 0A 29 7E 4E ]wT = 8
17:43:21-> Modbus RTU OK  READ_CH0_AI,B[115200],F[N,8,1], , CmdType [-1], Cmd [01 04 00 00 00 01 31 CA], Rec [01 04 02 09 A2 3E D9 ]wT = 8
17:43:21-> Modbus RTU OK  READ_CH1_AI,B[115200],F[N,8,1], , CmdType [-1], Cmd [01 04 00 01 00 01 60 0A], Rec [01 04 02 0A 29 7E 4E ]wT = 9
17:43:21-> Modbus RTU OK  READ_CH0_AI,B[115200],F[N,8,1], , CmdType [-1], Cmd [01 04 00 00 00 01 31 CA], Rec [01 04 02 09 A2 3E D9 ]wT = 8
17:43:22-> Modbus RTU OK  READ_CH1_AI,B[115200],F[N,8,1], , CmdType [-1], Cmd [01 04 00 01 00 01 60 0A], Rec [01 04 02 0A 29 7E 4E ]wT = 8
17:43:22-> Modbus RTU OK  READ_CH0_AI,B[115200],F[N,8,1], , CmdType [-1], Cmd [01 04 00 00 00 01 31 CA], Rec [01 04 02 09 A2 3E D9 ]wT = 8
17:43:22-> Modbus RTU OK  READ_CH1_AI,B[115200],F[N,8,1], , CmdType [-1], Cmd [01 04 00 01 00 01 60 0A], Rec [01 04 02 0A 29 7E 4E ]wT = 8
17:43:22-> Modbus RTU OK  READ_CH0_AI,B[115200],F[N,8,1], , CmdType [-1], Cmd [01 04 00 00 00 01 31 CA], Rec [01 04 02 09 A2 3E D9 ]wT = 8
17:43:22-> Modbus RTU OK  READ_CH1_AI,B[115200],F[N,8,1], , CmdType [-1], Cmd [01 04 00 01 00 01 60 0A], Rec [01 04 02 0A 29 7E 4E ]wT = 8
17:43:22-> Modbus RTU OK  READ_CH0_AI,B[115200],F[N,8,1], , CmdType [-1], Cmd [01 04 00 00 00 01 31 CA], Rec [01 04 02 09 9D 7E C9 ]wT = 27
17:43:22-> Modbus RTU OK  READ_CH1_AI,B[115200],F[N,8,1], , CmdType [-1], Cmd [01 04 00 01 00 01 60 0A], Rec [01 04 02 0A 29 7E 4E ]wT = 11
17:43:22-> Modbus RTU OK  READ_CH0_AI,B[115200],F[N,8,1], , CmdType [-1], Cmd [01 04 00 00 00 01 31 CA], Rec [01 04 02 09 9D 7E C9 ]wT = 8
17:43:22-> Modbus RTU OK  READ_CH1_AI,B[115200],F[N,8,1], , CmdType [-1], Cmd [01 04 00 01 00 01 60 0A], Rec [01 04 02 0A 29 7E 4E ]wT = 8
17:43:22-> Modbus RTU OK  READ_CH0_AI,B[115200],F[N,8,1], , CmdType [-1], Cmd [01 04 00 00 00 01 31 CA], Rec [01 04 02 09 9D 7E C9 ]wT = 8
17:43:22-> Modbus RTU OK  READ_CH1_AI,B[115200],F[N,8,1], , CmdType [-1], Cmd [01 04 00 01 00 01 60 0A], Rec [01 04 02 0A 29 7E 4E ]wT = 8
17:43:22-> Modbus RTU OK  READ_CH0_AI,B[115200],F[N,8,1], , CmdType [-1], Cmd [01 04 00 00 00 01 31 CA], Rec [01 04 02 09 9D 7E C9 ]wT = 10
17:43:22-> Modbus RTU OK  READ_CH1_AI,B[115200],F[N,8,1], , CmdType [-1], Cmd [01 04 00 01 00 01 60 0A], Rec [01 04 02 0A 29 7E 4E ]wT = 8
17:43:22-> Modbus RTU OK  READ_CH0_AI,B[115200],F[N,8,1], , CmdType [-1], Cmd [01 04 00 00 00 01 31 CA], Rec [01 04 02 09 9D 7E C9 ]wT = 8
17:43:22-> Modbus RTU OK  READ_CH1_AI,B[115200],F[N,8,1], , CmdType [-1], Cmd [01 04 00 01 00 01 60 0A], Rec [01 04 02 0A 29 7E 4E ]wT = 8
17:43:22-> Modbus RTU OK  READ_CH0_AI,B[115200],F[N,8,1], , CmdType [-1], Cmd [01 04 00 00 00 01 31 CA], Rec [01 04 02 09 9D 7E C9 ]wT = 8
17:43:22-> Modbus RTU OK  READ_CH1_AI,B[115200],F[N,8,1], , CmdType [-1], Cmd [01 04 00 01 00 01 60 0A], Rec [01 04 02 0A 29 7E 4E ]wT = 8
17:43:22-> Modbus RTU OK  READ_CH0_AI,B[115200],F[N,8,1], , CmdType [-1], Cmd [01 04 00 00 00 01 31 CA], Rec [01 04 02 09 9D 7E C9 ]wT = 8
17:43:22-> Modbus RTU OK  READ_CH1_AI,B[115200],F[N,8,1], , CmdType [-1], Cmd [01 04 00 01 00 01 60 0A], Rec [01 04 02 0A 29 7E 4E ]wT = 8
17:43:23-> Modbus RTU OK  READ_CH0_AI,B[115200],F[N,8,1], , CmdType [-1], Cmd [01 04 00 00 00 01 31 CA], Rec [01 04 02 09 9D 7E C9 ]wT = 8
17:43:23-> Modbus RTU OK  READ_CH1_AI,B[115200],F[N,8,1], , CmdType [-1], Cmd [01 04 00 01 00 01 60 0A], Rec [01 04 02 0A 29 7E 4E ]wT = 8
17:43:23-> Modbus RTU OK  READ_CH0_AI,B[115200],F[N,8,1], , CmdType [-1], Cmd [01 04 00 00 00 01 31 CA], Rec [01 04 02 09 9D 7E C9 ]wT = 8
17:43:23-> Modbus RTU OK  READ_CH1_AI,B[115200],F[N,8,1], , CmdType [-1], Cmd [01 04 00 01 00 01 60 0A], Rec [01 04 02 0A 29 7E 4E ]wT = 8
17:43:23-> Modbus RTU OK  READ_CH0_AI,B[115200],F[N,8,1], , CmdType [-1], Cmd [01 04 00 00 00 01 31 CA], Rec [01 04 02 09 A0 BF 18 ]wT = 29
17:43:23-> Modbus RTU OK  READ_CH1_AI,B[115200],F[N,8,1], , CmdType [-1], Cmd [01 04 00 01 00 01 60 0A], Rec [01 04 02 0A 27 FF 8A ]wT = 8
17:43:23-> Modbus RTU OK  READ_CH0_AI,B[115200],F[N,8,1], , CmdType [-1], Cmd [01 04 00 00 00 01 31 CA], Rec [01 04 02 09 A0 BF 18 ]wT = 8
17:43:23-> Modbus RTU OK  READ_CH1_AI,B[115200],F[N,8,1], , CmdType [-1], Cmd [01 04 00 01 00 01 60 0A], Rec [01 04 02 0A 27 FF 8A ]wT = 8
17:43:23-> Modbus RTU OK  READ_CH0_AI,B[115200],F[N,8,1], , CmdType [-1], Cmd [01 04 00 00 00 01 31 CA], Rec [01 04 02 09 A0 BF 18 ]wT = 8
17:43:23-> Modbus RTU OK  READ_CH1_AI,B[115200],F[N,8,1], , CmdType [-1], Cmd [01 04 00 01 00 01 60 0A], Rec [01 04 02 0A 27 FF 8A ]wT = 8
17:43:23-> Modbus RTU OK  READ_CH0_AI,B[115200],F[N,8,1], , CmdType [-1], Cmd [01 04 00 00 00 01 31 CA], Rec [01 04 02 09 A0 BF 18 ]wT = 8
17:43:23-> Modbus RTU OK  READ_CH1_AI,B[115200],F[N,8,1], , CmdType [-1], Cmd [01 04 00 01 00 01 60 0A], Rec [01 04 02 0A 27 FF 8A ]wT = 9
17:43:23-> Modbus RTU OK  READ_CH0_AI,B[115200],F[N,8,1], , CmdType [-1], Cmd [01 04 00 00 00 01 31 CA], Rec [01 04 02 09 A0 BF 18 ]wT = 8
17:43:23-> Modbus RTU OK  READ_CH1_AI,B[115200],F[N,8,1], , CmdType [-1], Cmd [01 04 00 01 00 01 60 0A], Rec [01 04 02 0A 27 FF 8A ]wT = 8
17:43:23-> Modbus RTU OK  READ_CH0_AI,B[115200],F[N,8,1], , CmdType [-1], Cmd [01 04 00 00 00 01 31 CA], Rec [01 04 02 09 A0 BF 18 ]wT = 8
17:43:23-> Modbus RTU OK  READ_CH1_AI,B[115200],F[N,8,1], , CmdType [-1], Cmd [01 04 00 01 00 01 60 0A], Rec [01 04 02 0A 27 FF 8A ]wT = 9
17:43:23-> Modbus RTU OK  READ_CH0_AI,B[115200],F[N,8,1], , CmdType [-1], Cmd [01 04 00 00 00 01 31 CA], Rec [01 04 02 09 A0 BF 18 ]wT = 8
17:43:23-> Modbus RTU OK  READ_CH1_AI,B[115200],F[N,8,1], , CmdType [-1], Cmd [01 04 00 01 00 01 60 0A], Rec [01 04 02 0A 27 FF 8A ]wT = 8
17:43:24-> Modbus RTU OK  READ_CH0_AI,B[115200],F[N,8,1], , CmdType [-1], Cmd [01 04 00 00 00 01 31 CA], Rec [01 04 02 09 A0 BF 18 ]wT = 8
17:43:24-> Modbus RTU OK  READ_CH1_AI,B[115200],F[N,8,1], , CmdType [-1], Cmd [01 04 00 01 00 01 60 0A], Rec [01 04 02 0A 27 FF 8A ]wT = 8
17:43:24-> Modbus RTU OK  READ_CH0_AI,B[115200],F[N,8,1], , CmdType [-1], Cmd [01 04 00 00 00 01 31 CA], Rec [01 04 02 09 A0 BF 18 ]wT = 8
17:43:24-> Modbus RTU OK  READ_CH1_AI,B[115200],F[N,8,1], , CmdType [-1], Cmd [01 04 00 01 00 01 60 0A], Rec [01 04 02 0A 27 FF 8A ]wT = 8
17:43:24-> Modbus RTU OK  READ_CH0_AI,B[115200],F[N,8,1], , CmdType [-1], Cmd [01 04 00 00 00 01 31 CA], Rec [01 04 02 09 9D 7E C9 ]wT = 21
17:43:24-> Modbus RTU OK  READ_CH1_AI,B[115200],F[N,8,1], , CmdType [-1], Cmd [01 04 00 01 00 01 60 0A], Rec [01 04 02 0A 27 FF 8A ]wT = 8
17:43:24-> Modbus RTU OK  READ_CH0_AI,B[115200],F[N,8,1], , CmdType [-1], Cmd [01 04 00 00 00 01 31 CA], Rec [01 04 02 09 9D 7E C9 ]wT = 8
17:43:24-> Modbus RTU OK  READ_CH1_AI,B[115200],F[N,8,1], , CmdType [-1], Cmd [01 04 00 01 00 01 60 0A], Rec [01 04 02 0A 27 FF 8A ]wT = 8
17:43:24-> Modbus RTU OK  READ_CH0_AI,B[115200],F[N,8,1], , CmdType [-1], Cmd [01 04 00 00 00 01 31 CA], Rec [01 04 02 09 9D 7E C9 ]wT = 9
17:43:24-> Modbus RTU OK  READ_CH1_AI,B[115200],F[N,8,1], , CmdType [-1], Cmd [01 04 00 01 00 01 60 0A], Rec [01 04 02 0A 27 FF 8A ]wT = 10
17:43:24-> Modbus RTU OK  READ_CH0_AI,B[115200],F[N,8,1], , CmdType [-1], Cmd [01 04 00 00 00 01 31 CA], Rec [01 04 02 09 9D 7E C9 ]wT = 8
17:43:24-> Modbus RTU OK  READ_CH1_AI,B[115200],F[N,8,1], , CmdType [-1], Cmd [01 04 00 01 00 01 60 0A], Rec [01 04 02 0A 27 FF 8A ]wT = 8
17:43:24-> Modbus RTU OK  READ_CH0_AI,B[115200],F[N,8,1], , CmdType [-1], Cmd [01 04 00 00 00 01 31 CA], Rec [01 04 02 09 9D 7E C9 ]wT = 8
17:43:24-> Modbus RTU OK  READ_CH1_AI,B[115200],F[N,8,1], , CmdType [-1], Cmd [01 04 00 01 00 01 60 0A], Rec [01 04 02 0A 27 FF 8A ]wT = 8
17:43:24-> Modbus RTU OK  READ_CH0_AI,B[115200],F[N,8,1], , CmdType [-1], Cmd [01 04 00 00 00 01 31 CA], Rec [01 04 02 09 9D 7E C9 ]wT = 8
17:43:24-> Modbus RTU OK  READ_CH1_AI,B[115200],F[N,8,1], , CmdType [-1], Cmd [01 04 00 01 00 01 60 0A], Rec [01 04 02 0A 27 FF 8A ]wT = 8
17:43:24-> Modbus RTU OK  READ_CH0_AI,B[115200],F[N,8,1], , CmdType [-1], Cmd [01 04 00 00 00 01 31 CA], Rec [01 04 02 09 9D 7E C9 ]wT = 8
17:43:24-> Modbus RTU OK  READ_CH1_AI,B[115200],F[N,8,1], , CmdType [-1], Cmd [01 04 00 01 00 01 60 0A], Rec [01 04 02 0A 27 FF 8A ]wT = 8
17:43:25-> Modbus RTU OK  READ_CH0_AI,B[115200],F[N,8,1], , CmdType [-1], Cmd [01 04 00 00 00 01 31 CA], Rec [01 04 02 09 9D 7E C9 ]wT = 8
17:43:25-> Modbus RTU OK  READ_CH1_AI,B[115200],F[N,8,1], , CmdType [-1], Cmd [01 04 00 01 00 01 60 0A], Rec [01 04 02 0A 27 FF 8A ]wT = 8
17:43:25-> Modbus RTU OK  READ_CH0_AI,B[115200],F[N,8,1], , CmdType [-1], Cmd [01 04 00 00 00 01 31 CA], Rec [01 04 02 09 9D 7E C9 ]wT = 8
17:43:25-> Modbus RTU OK  READ_CH1_AI,B[115200],F[N,8,1], , CmdType [-1], Cmd [01 04 00 01 00 01 60 0A], Rec [01 04 02 0A 27 FF 8A ]wT = 8
17:43:25-> Modbus RTU OK  READ_CH0_AI,B[115200],F[N,8,1], , CmdType [-1], Cmd [01 04 00 00 00 01 31 CA], Rec [01 04 02 09 9D 7E C9 ]wT = 8
17:43:25-> Modbus RTU OK  READ_CH1_AI,B[115200],F[N,8,1], , CmdType [-1], Cmd [01 04 00 01 00 01 60 0A], Rec [01 04 02 0A 28 BF 8E ]wT = 8
17:43:25-> Modbus RTU OK  READ_CH0_AI,B[115200],F[N,8,1], , CmdType [-1], Cmd [01 04 00 00 00 01 31 CA], Rec [01 04 02 09 9D 7E C9 ]wT = 8
17:43:25-> Modbus RTU OK  READ_CH1_AI,B[115200],F[N,8,1], , CmdType [-1], Cmd [01 04 00 01 00 01 60 0A], Rec [01 04 02 0A 28 BF 8E ]wT = 8
17:43:25-> Modbus RTU OK  READ_CH0_AI,B[115200],F[N,8,1], , CmdType [-1], Cmd [01 04 00 00 00 01 31 CA], Rec [01 04 02 09 9D 7E C9 ]wT = 8
17:43:25-> Modbus RTU OK  READ_CH1_AI,B[115200],F[N,8,1], , CmdType [-1], Cmd [01 04 00 01 00 01 60 0A], Rec [01 04 02 0A 28 BF 8E ]wT = 8
17:43:25-> Modbus RTU OK  READ_CH0_AI,B[115200],F[N,8,1], , CmdType [-1], Cmd [01 04 00 00 00 01 31 CA], Rec [01 04 02 09 9D 7E C9 ]wT = 8
17:43:25-> Modbus RTU OK  READ_CH1_AI,B[115200],F[N,8,1], , CmdType [-1], Cmd [01 04 00 01 00 01 60 0A], Rec [01 04 02 0A 28 BF 8E ]wT = 9
17:43:25-> Modbus RTU OK  READ_CH0_AI,B[115200],F[N,8,1], , CmdType [-1], Cmd [01 04 00 00 00 01 31 CA], Rec [01 04 02 09 9D 7E C9 ]wT = 8
17:43:25-> Modbus RTU OK  READ_CH1_AI,B[115200],F[N,8,1], , CmdType [-1], Cmd [01 04 00 01 00 01 60 0A], Rec [01 04 02 0A 28 BF 8E ]wT = 8
17:43:25-> Modbus RTU OK  READ_CH0_AI,B[115200],F[N,8,1], , CmdType [-1], Cmd [01 04 00 00 00 01 31 CA], Rec [01 04 02 09 9D 7E C9 ]wT = 11
17:43:25-> Modbus RTU OK  READ_CH1_AI,B[115200],F[N,8,1], , CmdType [-1], Cmd [01 04 00 01 00 01 60 0A], Rec [01 04 02 0A 28 BF 8E ]wT = 10
17:43:25-> Modbus RTU OK  READ_CH0_AI,B[115200],F[N,8,1], , CmdType [-1], Cmd [01 04 00 00 00 01 31 CA], Rec [01 04 02 09 9D 7E C9 ]wT = 8
17:43:25-> Modbus RTU OK  READ_CH1_AI,B[115200],F[N,8,1], , CmdType [-1], Cmd [01 04 00 01 00 01 60 0A], Rec [01 04 02 0A 28 BF 8E ]wT = 8
17:43:26-> Modbus RTU OK  READ_CH0_AI,B[115200],F[N,8,1], , CmdType [-1], Cmd [01 04 00 00 00 01 31 CA], Rec [01 04 02 09 9D 7E C9 ]wT = 8
17:43:26-> Modbus RTU OK  READ_CH1_AI,B[115200],F[N,8,1], , CmdType [-1], Cmd [01 04 00 01 00 01 60 0A], Rec [01 04 02 0A 28 BF 8E ]wT = 8
17:43:26-> Modbus RTU OK  READ_CH0_AI,B[115200],F[N,8,1], , CmdType [-1], Cmd [01 04 00 00 00 01 31 CA], Rec [01 04 02 09 9D 7E C9 ]wT = 8
17:43:26-> Modbus RTU OK  READ_CH1_AI,B[115200],F[N,8,1], , CmdType [-1], Cmd [01 04 00 01 00 01 60 0A], Rec [01 04 02 0A 28 BF 8E ]wT = 8
17:43:26-> Modbus RTU OK  READ_CH0_AI,B[115200],F[N,8,1], , CmdType [-1], Cmd [01 04 00 00 00 01 31 CA], Rec [01 04 02 09 9B FE CB ]wT = 8
17:43:26-> Modbus RTU OK  READ_CH1_AI,B[115200],F[N,8,1], , CmdType [-1], Cmd [01 04 00 01 00 01 60 0A], Rec [01 04 02 0A 27 FF 8A ]wT = 8
17:43:26-> Modbus RTU OK  READ_CH0_AI,B[115200],F[N,8,1], , CmdType [-1], Cmd [01 04 00 00 00 01 31 CA], Rec [01 04 02 09 9B FE CB ]wT = 8
17:43:26-> Modbus RTU OK  READ_CH1_AI,B[115200],F[N,8,1], , CmdType [-1], Cmd [01 04 00 01 00 01 60 0A], Rec [01 04 02 0A 27 FF 8A ]wT = 8
17:43:26-> Modbus RTU OK  READ_CH0_AI,B[115200],F[N,8,1], , CmdType [-1], Cmd [01 04 00 00 00 01 31 CA], Rec [01 04 02 09 9B FE CB ]wT = 8
17:43:26-> Modbus RTU OK  READ_CH1_AI,B[115200],F[N,8,1], , CmdType [-1], Cmd [01 04 00 01 00 01 60 0A], Rec [01 04 02 0A 27 FF 8A ]wT = 8
17:43:26-> Modbus RTU OK  READ_CH0_AI,B[115200],F[N,8,1], , CmdType [-1], Cmd [01 04 00 00 00 01 31 CA], Rec [01 04 02 09 9B FE CB ]wT = 8
17:43:26-> Modbus RTU OK  READ_CH1_AI,B[115200],F[N,8,1], , CmdType [-1], Cmd [01 04 00 01 00 01 60 0A], Rec [01 04 02 0A 27 FF 8A ]wT = 8
17:43:26-> Modbus RTU OK  READ_CH0_AI,B[115200],F[N,8,1], , CmdType [-1], Cmd [01 04 00 00 00 01 31 CA], Rec [01 04 02 09 9B FE CB ]wT = 8
17:43:26-> Modbus RTU OK  READ_CH1_AI,B[115200],F[N,8,1], , CmdType [-1], Cmd [01 04 00 01 00 01 60 0A], Rec [01 04 02 0A 27 FF 8A ]wT = 9
17:43:26-> Modbus RTU OK  READ_CH0_AI,B[115200],F[N,8,1], , CmdType [-1], Cmd [01 04 00 00 00 01 31 CA], Rec [01 04 02 09 9B FE CB ]wT = 8
17:43:26-> Modbus RTU OK  READ_CH1_AI,B[115200],F[N,8,1], , CmdType [-1], Cmd [01 04 00 01 00 01 60 0A], Rec [01 04 02 0A 27 FF 8A ]wT = 8
17:43:26-> Modbus RTU OK  READ_CH0_AI,B[115200],F[N,8,1], , CmdType [-1], Cmd [01 04 00 00 00 01 31 CA], Rec [01 04 02 09 9B FE CB ]wT = 8
17:43:26-> Modbus RTU OK  READ_CH1_AI,B[115200],F[N,8,1], , CmdType [-1], Cmd [01 04 00 01 00 01 60 0A], Rec [01 04 02 0A 27 FF 8A ]wT = 8
17:43:27-> Modbus RTU OK  READ_CH0_AI,B[115200],F[N,8,1], , CmdType [-1], Cmd [01 04 00 00 00 01 31 CA], Rec [01 04 02 09 9B FE CB ]wT = 8
17:43:27-> Modbus RTU OK  READ_CH1_AI,B[115200],F[N,8,1], , CmdType [-1], Cmd [01 04 00 01 00 01 60 0A], Rec [01 04 02 0A 27 FF 8A ]wT = 8
17:43:27-> Modbus RTU OK  READ_CH0_AI,B[115200],F[N,8,1], , CmdType [-1], Cmd [01 04 00 00 00 01 31 CA], Rec [01 04 02 09 9B FE CB ]wT = 8
17:43:27-> Modbus RTU OK  READ_CH1_AI,B[115200],F[N,8,1], , CmdType [-1], Cmd [01 04 00 01 00 01 60 0A], Rec [01 04 02 0A 27 FF 8A ]wT = 9
17:43:27-> Modbus RTU OK  READ_CH0_AI,B[115200],F[N,8,1], , CmdType [-1], Cmd [01 04 00 00 00 01 31 CA], Rec [01 04 02 09 9E 3E C8 ]wT = 11
17:43:27-> Modbus RTU OK  READ_CH1_AI,B[115200],F[N,8,1], , CmdType [-1], Cmd [01 04 00 01 00 01 60 0A], Rec [01 04 02 0A 29 7E 4E ]wT = 10
17:43:27-> Modbus RTU OK  READ_CH0_AI,B[115200],F[N,8,1], , CmdType [-1], Cmd [01 04 00 00 00 01 31 CA], Rec [01 04 02 09 9E 3E C8 ]wT = 8
17:43:27-> Modbus RTU OK  READ_CH1_AI,B[115200],F[N,8,1], , CmdType [-1], Cmd [01 04 00 01 00 01 60 0A], Rec [01 04 02 0A 29 7E 4E ]wT = 8
17:43:27-> Modbus RTU OK  READ_CH0_AI,B[115200],F[N,8,1], , CmdType [-1], Cmd [01 04 00 00 00 01 31 CA], Rec [01 04 02 09 9E 3E C8 ]wT = 8
17:43:27-> Modbus RTU OK  READ_CH1_AI,B[115200],F[N,8,1], , CmdType [-1], Cmd [01 04 00 01 00 01 60 0A], Rec [01 04 02 0A 29 7E 4E ]wT = 9
17:43:27-> Modbus RTU OK  READ_CH0_AI,B[115200],F[N,8,1], , CmdType [-1], Cmd [01 04 00 00 00 01 31 CA], Rec [01 04 02 09 9E 3E C8 ]wT = 10
17:43:27-> Modbus RTU OK  READ_CH1_AI,B[115200],F[N,8,1], , CmdType [-1], Cmd [01 04 00 01 00 01 60 0A], Rec [01 04 02 0A 29 7E 4E ]wT = 10
17:43:27-> Modbus RTU OK  READ_CH0_AI,B[115200],F[N,8,1], , CmdType [-1], Cmd [01 04 00 00 00 01 31 CA], Rec [01 04 02 09 9E 3E C8 ]wT = 8
17:43:27-> Modbus RTU OK  READ_CH1_AI,B[115200],F[N,8,1], , CmdType [-1], Cmd [01 04 00 01 00 01 60 0A], Rec [01 04 02 0A 29 7E 4E ]wT = 8
17:43:27-> Modbus RTU OK  READ_CH0_AI,B[115200],F[N,8,1], , CmdType [-1], Cmd [01 04 00 00 00 01 31 CA], Rec [01 04 02 09 9E 3E C8 ]wT = 8
17:43:27-> Modbus RTU OK  READ_CH1_AI,B[115200],F[N,8,1], , CmdType [-1], Cmd [01 04 00 01 00 01 60 0A], Rec [01 04 02 0A 29 7E 4E ]wT = 8
17:43:27-> Modbus RTU OK  READ_CH0_AI,B[115200],F[N,8,1], , CmdType [-1], Cmd [01 04 00 00 00 01 31 CA], Rec [01 04 02 09 9E 3E C8 ]wT = 8
17:43:27-> Modbus RTU OK  READ_CH1_AI,B[115200],F[N,8,1], , CmdType [-1], Cmd [01 04 00 01 00 01 60 0A], Rec [01 04 02 0A 29 7E 4E ]wT = 8
17:43:28-> Modbus RTU OK  READ_CH0_AI,B[115200],F[N,8,1], , CmdType [-1], Cmd [01 04 00 00 00 01 31 CA], Rec [01 04 02 09 9E 3E C8 ]wT = 8
17:43:28-> Modbus RTU OK  READ_CH1_AI,B[115200],F[N,8,1], , CmdType [-1], Cmd [01 04 00 01 00 01 60 0A], Rec [01 04 02 0A 29 7E 4E ]wT = 8
17:43:28-> Modbus RTU OK  READ_CH0_AI,B[115200],F[N,8,1], , CmdType [-1], Cmd [01 04 00 00 00 01 31 CA], Rec [01 04 02 09 9E 3E C8 ]wT = 8
17:43:28-> Modbus RTU OK  READ_CH1_AI,B[115200],F[N,8,1], , CmdType [-1], Cmd [01 04 00 01 00 01 60 0A], Rec [01 04 02 0A 29 7E 4E ]wT = 9
17:43:28-> Modbus RTU OK  READ_CH0_AI,B[115200],F[N,8,1], , CmdType [-1], Cmd [01 04 00 00 00 01 31 CA], Rec [01 04 02 09 9D 7E C9 ]wT = 8
17:43:28-> Modbus RTU OK  READ_CH1_AI,B[115200],F[N,8,1], , CmdType [-1], Cmd [01 04 00 01 00 01 60 0A], Rec [01 04 02 0A 28 BF 8E ]wT = 8
17:43:28-> Modbus RTU OK  READ_CH0_AI,B[115200],F[N,8,1], , CmdType [-1], Cmd [01 04 00 00 00 01 31 CA], Rec [01 04 02 09 9D 7E C9 ]wT = 8
17:43:28-> Modbus RTU OK  READ_CH1_AI,B[115200],F[N,8,1], , CmdType [-1], Cmd [01 04 00 01 00 01 60 0A], Rec [01 04 02 0A 28 BF 8E ]wT = 8
17:43:28-> Modbus RTU OK  READ_CH0_AI,B[115200],F[N,8,1], , CmdType [-1], Cmd [01 04 00 00 00 01 31 CA], Rec [01 04 02 09 9D 7E C9 ]wT = 8
17:43:28-> Modbus RTU OK  READ_CH1_AI,B[115200],F[N,8,1], , CmdType [-1], Cmd [01 04 00 01 00 01 60 0A], Rec [01 04 02 0A 28 BF 8E ]wT = 8
17:43:28-> Modbus RTU OK  READ_CH0_AI,B[115200],F[N,8,1], , CmdType [-1], Cmd [01 04 00 00 00 01 31 CA], Rec [01 04 02 09 9D 7E C9 ]wT = 8
17:43:28-> Modbus RTU OK  READ_CH1_AI,B[115200],F[N,8,1], , CmdType [-1], Cmd [01 04 00 01 00 01 60 0A], Rec [01 04 02 0A 28 BF 8E ]wT = 8
17:43:28-> Modbus RTU OK  READ_CH0_AI,B[115200],F[N,8,1], , CmdType [-1], Cmd [01 04 00 00 00 01 31 CA], Rec [01 04 02 09 9D 7E C9 ]wT = 8
17:43:28-> Modbus RTU OK  READ_CH1_AI,B[115200],F[N,8,1], , CmdType [-1], Cmd [01 04 00 01 00 01 60 0A], Rec [01 04 02 0A 28 BF 8E ]wT = 8
17:43:28-> Modbus RTU OK  READ_CH0_AI,B[115200],F[N,8,1], , CmdType [-1], Cmd [01 04 00 00 00 01 31 CA], Rec [01 04 02 09 9D 7E C9 ]wT = 8
17:43:28-> Modbus RTU OK  READ_CH1_AI,B[115200],F[N,8,1], , CmdType [-1], Cmd [01 04 00 01 00 01 60 0A], Rec [01 04 02 0A 28 BF 8E ]wT = 8
17:43:28-> Modbus RTU OK  READ_CH0_AI,B[115200],F[N,8,1], , CmdType [-1], Cmd [01 04 00 00 00 01 31 CA], Rec [01 04 02 09 9D 7E C9 ]wT = 8
17:43:28-> Modbus RTU OK  READ_CH1_AI,B[115200],F[N,8,1], , CmdType [-1], Cmd [01 04 00 01 00 01 60 0A], Rec [01 04 02 0A 28 BF 8E ]wT = 8
17:43:28-> Modbus RTU OK  READ_CH0_AI,B[115200],F[N,8,1], , CmdType [-1], Cmd [01 04 00 00 00 01 31 CA], Rec [01 04 02 09 9D 7E C9 ]wT = 8
