2:17:19 PM-> Modbus RTU OK  GET_MODULE_FIRMWARE,B[9600],F[N,8,1], , CmdType [100], Cmd [01 46 20 13 B8], Rec [01 46 20 A1 04 00 D0 E7 ]wT = 35
2:17:19 PM-> Modbus RTU OK  GET_COMMUNICATE_PARAMETER,B[9600],F[N,8,1], , CmdType [100], Cmd [01 46 05 00 E3 5D], Rec [01 46 05 03 06 00 00 00 01 00 00 A8 56 ]wT = 47
2:17:22 PM-> Modbus RTU OK  GET_MODULE_ADDRESS,B[9600],F[N,8,1], , CmdType [100], Cmd [01 03 01 E4 00 01 C5 C1], Rec [01 03 02 00 01 79 84 ]wT = 42
2:17:22 PM-> Modbus RTU OK  GET_MODBUS_MISC,B[9600],F[N,8,1], , CmdType [10], Cmd [01 01 01 0E 00 08 5D F3], Rec [01 01 01 04 50 4B ]wT = 41
2:17:22 PM-> Modbus RTU OK  GET_MODBUS_DATAFORMAT,B[9600],F[N,8,1], , CmdType [10], Cmd [01 01 01 0C 00 01 3C 35], Rec [01 01 01 01 90 48 ]wT = 41
2:17:22 PM-> Modbus RTU OK  GET_RESPONSE_DELAY_TIME,B[9600],F[N,8,1], , CmdType [10], Cmd [01 46 35 D2 77], Rec [01 46 35 00 F7 5D ]wT = 38
2:17:22 PM-> Modbus RTU OK  GET_CHANNEL_ENABLE_STATUS,B[9600],F[N,8,1], , CmdType [10], Cmd [01 46 25 D3 BB], Rec [01 46 25 0F BA 99 ]wT = 38
2:17:22 PM-> Modbus RTU OK  GET_CH0_INPUT_RANGE,B[9600],F[N,8,1], , CmdType [10], Cmd [01 46 07 00 00 BD 49], Rec [01 46 07 07 A3 FF ]wT = 40
2:17:22 PM-> Modbus RTU OK  GET_CH1_INPUT_RANGE,B[9600],F[N,8,1], , CmdType [10], Cmd [01 46 07 00 01 7C 89], Rec [01 46 07 07 A3 FF ]wT = 41
2:17:22 PM-> Modbus RTU OK  GET_CH2_INPUT_RANGE,B[9600],F[N,8,1], , CmdType [10], Cmd [01 46 07 00 02 3C 88], Rec [01 46 07 07 A3 FF ]wT = 40
2:17:22 PM-> Modbus RTU OK  GET_CH3_INPUT_RANGE,B[9600],F[N,8,1], , CmdType [10], Cmd [01 46 07 00 03 FD 48], Rec [01 46 07 07 A3 FF ]wT = 40
2:17:22 PM-> Modbus RTU OK  GET_WDT_TIMER,B[9600],F[N,8,1], , CmdType [10], Cmd [01 03 01 E8 00 01 05 C2], Rec [01 03 02 00 FF F8 04 ]wT = 42
2:17:22 PM-> Modbus RTU OK  GET_WDT_ENABLE,B[9600],F[N,8,1], , CmdType [10], Cmd [01 01 01 04 00 01 BD F7], Rec [01 01 01 00 51 88 ]wT = 42
2:17:22 PM-> Modbus RTU OK  GET_WDT_OVERWRITE,B[9600],F[N,8,1], , CmdType [10], Cmd [01 01 01 03 00 01 0C 36], Rec [01 01 01 00 51 88 ]wT = 41
2:17:22 PM-> Modbus RTU OK  GET_DI_REVERSE,B[9600],F[N,8,1], , CmdType [10], Cmd [01 46 29 D3 BE], Rec [01 46 29 01 3E 5D ]wT = 38
2:17:22 PM-> Modbus RTU OK  GET_CH0_SIMPLE_AI_LOW_ALARM_LIMIT,B[9600],F[N,8,1], , CmdType [10], Cmd [01 03 00 E8 00 01 04 3E], Rec [01 03 02 0F A0 BD CC ]wT = 43
2:17:23 PM-> Modbus RTU OK  GET_CH0_SIMPLE_AI_HIGH_ALARM_LIMIT,B[9600],F[N,8,1], , CmdType [10], Cmd [01 03 00 E0 00 01 85 FC], Rec [01 03 02 4E 20 8C 3C ]wT = 42
2:17:23 PM-> Modbus RTU OK  GET_CH0_AI_ALARM_ENABLE_STATUS,B[9600],F[N,8,1], , CmdType [10], Cmd [01 01 01 40 00 01 FD E2], Rec [01 01 01 00 51 88 ]wT = 41
2:17:23 PM-> Modbus RTU OK  GET_CH1_SIMPLE_AI_LOW_ALARM_LIMIT,B[9600],F[N,8,1], , CmdType [10], Cmd [01 03 00 E9 00 01 55 FE], Rec [01 03 02 0F A0 BD CC ]wT = 42
2:17:23 PM-> Modbus RTU OK  GET_CH1_SIMPLE_AI_HIGH_ALARM_LIMIT,B[9600],F[N,8,1], , CmdType [10], Cmd [01 03 00 E1 00 01 D4 3C], Rec [01 03 02 4E 20 8C 3C ]wT = 42
2:17:23 PM-> Modbus RTU OK  GET_CH1_AI_ALARM_ENABLE_STATUS,B[9600],F[N,8,1], , CmdType [10], Cmd [01 01 01 41 00 01 AC 22], Rec [01 01 01 00 51 88 ]wT = 42
2:17:23 PM-> Modbus RTU OK  GET_MODULE_ADDRESS,B[9600],F[N,8,1], , CmdType [100], Cmd [01 03 01 E4 00 01 C5 C1], Rec [01 03 02 00 01 79 84 ]wT = 42
2:17:23 PM-> Modbus RTU OK  GET_MODBUS_MISC,B[9600],F[N,8,1], , CmdType [10], Cmd [01 01 01 0E 00 08 5D F3], Rec [01 01 01 00 51 88 ]wT = 41
2:17:23 PM-> Modbus RTU OK  GET_MODBUS_DATAFORMAT,B[9600],F[N,8,1], , CmdType [10], Cmd [01 01 01 0C 00 01 3C 35], Rec [01 01 01 01 90 48 ]wT = 41
2:17:23 PM-> Modbus RTU OK  GET_RESPONSE_DELAY_TIME,B[9600],F[N,8,1], , CmdType [10], Cmd [01 46 35 D2 77], Rec [01 46 35 00 F7 5D ]wT = 39
2:17:23 PM-> Modbus RTU OK  READ_CH0_AI,B[9600],F[N,8,1], , CmdType [-1], Cmd [01 04 00 00 00 01 31 CA], Rec [01 04 02 80 00 D8 F0 ]wT = 42
2:17:23 PM-> Modbus RTU OK  READ_CH1_AI,B[9600],F[N,8,1], , CmdType [-1], Cmd [01 04 00 01 00 01 60 0A], Rec [01 04 02 80 00 D8 F0 ]wT = 42
2:17:23 PM-> Modbus RTU OK  READ_CH2_AI,B[9600],F[N,8,1], , CmdType [-1], Cmd [01 04 00 02 00 01 90 0A], Rec [01 04 02 80 00 D8 F0 ]wT = 42
2:17:23 PM-> Modbus RTU OK  READ_CH3_AI,B[9600],F[N,8,1], , CmdType [-1], Cmd [01 04 00 03 00 01 C1 CA], Rec [01 04 02 80 00 D8 F0 ]wT = 42
2:17:23 PM-> Modbus RTU OK  READ_WDT_STATUS,B[9600],F[N,8,1], , CmdType [-1], Cmd [01 01 01 0D 00 01 6D F5], Rec [01 01 01 00 51 88 ]wT = 41
2:17:23 PM-> Modbus RTU OK  READ_SIMPLE_AI_DI_STATUS,B[9600],F[N,8,1], , CmdType [-1], Cmd [01 02 00 20 00 02 F8 01], Rec [01 02 01 03 E1 89 ]wT = 42
2:17:23 PM-> Modbus RTU OK  READ_SIMPLE_AI_DO_STATUS,B[9600],F[N,8,1], , CmdType [-1], Cmd [01 01 00 00 00 02 BD CB], Rec [01 01 01 00 51 88 ]wT = 41
2:17:23 PM-> Modbus RTU OK  READ_SIMPLE_AI_ALARM_STATUS,B[9600],F[N,8,1], , CmdType [-1], Cmd [01 01 01 05 00 02 AC 36], Rec [01 01 01 00 51 88 ]wT = 41
2:17:24 PM-> Modbus RTU OK  READ_LOW_ALARM_DO_ON,B[9600],F[N,8,1], , CmdType [-1], Cmd [01 01 01 20 00 02 BD FD], Rec [01 01 01 00 51 88 ]wT = 42
2:17:24 PM-> Modbus RTU OK  READ_HIGH_ALARM_DO_ON,B[9600],F[N,8,1], , CmdType [-1], Cmd [01 01 01 30 00 02 BC 38], Rec [01 01 01 00 51 88 ]wT = 41
2:17:24 PM-> Modbus RTU OK  READ_SIMPLE_AI_DI_STATUS,B[9600],F[N,8,1], , CmdType [-1], Cmd [01 02 00 20 00 02 F8 01], Rec [01 02 01 03 E1 89 ]wT = 41
2:17:24 PM-> Modbus RTU OK  READ_SIMPLE_AI_DO_STATUS,B[9600],F[N,8,1], , CmdType [-1], Cmd [01 01 00 00 00 02 BD CB], Rec [01 01 01 00 51 88 ]wT = 41
2:17:24 PM-> Modbus RTU OK  READ_SIMPLE_AI_ALARM_STATUS,B[9600],F[N,8,1], , CmdType [-1], Cmd [01 01 01 05 00 02 AC 36], Rec [01 01 01 00 51 88 ]wT = 42
2:17:24 PM-> Modbus RTU OK  READ_DI_HIGH_LATCH,B[9600],F[N,8,1], , CmdType [-1], Cmd [01 01 00 40 00 02 BC 1F], Rec [01 01 01 03 11 89 ]wT = 41
2:17:24 PM-> Modbus RTU OK  READ_DI_LOW_LATCH,B[9600],F[N,8,1], , CmdType [-1], Cmd [01 01 00 60 00 02 BD D5], Rec [01 01 01 00 51 88 ]wT = 41
2:17:24 PM-> Modbus RTU OK  READ_CH0_DI_COUNTER,B[9600],F[N,8,1], , CmdType [-1], Cmd [01 03 00 80 00 01 85 E2], Rec [01 03 02 00 00 B8 44 ]wT = 42
2:17:24 PM-> Modbus RTU OK  READ_CH1_DI_COUNTER,B[9600],F[N,8,1], , CmdType [-1], Cmd [01 03 00 81 00 01 D4 22], Rec [01 03 02 00 00 B8 44 ]wT = 43
2:17:24 PM-> Modbus RTU OK  READ_CH0_AI,B[9600],F[N,8,1], , CmdType [-1], Cmd [01 04 00 00 00 01 31 CA], Rec [01 04 02 80 00 D8 F0 ]wT = 42
2:17:24 PM-> Modbus RTU OK  READ_CH1_AI,B[9600],F[N,8,1], , CmdType [-1], Cmd [01 04 00 01 00 01 60 0A], Rec [01 04 02 80 00 D8 F0 ]wT = 42
2:17:24 PM-> Modbus RTU OK  READ_CH2_AI,B[9600],F[N,8,1], , CmdType [-1], Cmd [01 04 00 02 00 01 90 0A], Rec [01 04 02 80 00 D8 F0 ]wT = 43
2:17:24 PM-> Modbus RTU OK  READ_CH3_AI,B[9600],F[N,8,1], , CmdType [-1], Cmd [01 04 00 03 00 01 C1 CA], Rec [01 04 02 80 00 D8 F0 ]wT = 42
2:17:24 PM-> Modbus RTU OK  READ_WDT_STATUS,B[9600],F[N,8,1], , CmdType [-1], Cmd [01 01 01 0D 00 01 6D F5], Rec [01 01 01 00 51 88 ]wT = 42
2:17:24 PM-> Modbus RTU OK  READ_SIMPLE_AI_DI_STATUS,B[9600],F[N,8,1], , CmdType [-1], Cmd [01 02 00 20 00 02 F8 01], Rec [01 02 01 03 E1 89 ]wT = 41
2:17:24 PM-> Modbus RTU OK  READ_SIMPLE_AI_DO_STATUS,B[9600],F[N,8,1], , CmdType [-1], Cmd [01 01 00 00 00 02 BD CB], Rec [01 01 01 00 51 88 ]wT = 41
2:17:24 PM-> Modbus RTU OK  READ_SIMPLE_AI_ALARM_STATUS,B[9600],F[N,8,1], , CmdType [-1], Cmd [01 01 01 05 00 02 AC 36], Rec [01 01 01 00 51 88 ]wT = 41
2:17:24 PM-> Modbus RTU OK  READ_LOW_ALARM_DO_ON,B[9600],F[N,8,1], , CmdType [-1], Cmd [01 01 01 20 00 02 BD FD], Rec [01 01 01 00 51 88 ]wT = 42
2:17:24 PM-> Modbus RTU OK  READ_HIGH_ALARM_DO_ON,B[9600],F[N,8,1], , CmdType [-1], Cmd [01 01 01 30 00 02 BC 38], Rec [01 01 01 00 51 88 ]wT = 41
2:17:24 PM-> Modbus RTU OK  READ_SIMPLE_AI_DI_STATUS,B[9600],F[N,8,1], , CmdType [-1], Cmd [01 02 00 20 00 02 F8 01], Rec [01 02 01 03 E1 89 ]wT = 41
2:17:24 PM-> Modbus RTU OK  READ_SIMPLE_AI_DO_STATUS,B[9600],F[N,8,1], , CmdType [-1], Cmd [01 01 00 00 00 02 BD CB], Rec [01 01 01 00 51 88 ]wT = 41
2:17:24 PM-> Modbus RTU OK  READ_SIMPLE_AI_ALARM_STATUS,B[9600],F[N,8,1], , CmdType [-1], Cmd [01 01 01 05 00 02 AC 36], Rec [01 01 01 00 51 88 ]wT = 41
2:17:25 PM-> Modbus RTU OK  READ_DI_HIGH_LATCH,B[9600],F[N,8,1], , CmdType [-1], Cmd [01 01 00 40 00 02 BC 1F], Rec [01 01 01 03 11 89 ]wT = 41
2:17:25 PM-> Modbus RTU OK  READ_DI_LOW_LATCH,B[9600],F[N,8,1], , CmdType [-1], Cmd [01 01 00 60 00 02 BD D5], Rec [01 01 01 00 51 88 ]wT = 42
2:17:25 PM-> Modbus RTU OK  READ_CH0_DI_COUNTER,B[9600],F[N,8,1], , CmdType [-1], Cmd [01 03 00 80 00 01 85 E2], Rec [01 03 02 00 00 B8 44 ]wT = 42
2:17:25 PM-> Modbus RTU OK  READ_CH1_DI_COUNTER,B[9600],F[N,8,1], , CmdType [-1], Cmd [01 03 00 81 00 01 D4 22], Rec [01 03 02 00 00 B8 44 ]wT = 42
2:17:25 PM-> Modbus RTU OK  READ_CH0_AI,B[9600],F[N,8,1], , CmdType [-1], Cmd [01 04 00 00 00 01 31 CA], Rec [01 04 02 80 00 D8 F0 ]wT = 42
2:17:25 PM-> Modbus RTU OK  READ_CH1_AI,B[9600],F[N,8,1], , CmdType [-1], Cmd [01 04 00 01 00 01 60 0A], Rec [01 04 02 80 00 D8 F0 ]wT = 42
2:17:25 PM-> Modbus RTU OK  READ_CH2_AI,B[9600],F[N,8,1], , CmdType [-1], Cmd [01 04 00 02 00 01 90 0A], Rec [01 04 02 80 00 D8 F0 ]wT = 42
2:17:25 PM-> Modbus RTU OK  READ_CH3_AI,B[9600],F[N,8,1], , CmdType [-1], Cmd [01 04 00 03 00 01 C1 CA], Rec [01 04 02 80 00 D8 F0 ]wT = 42
2:17:25 PM-> Modbus RTU OK  READ_WDT_STATUS,B[9600],F[N,8,1], , CmdType [-1], Cmd [01 01 01 0D 00 01 6D F5], Rec [01 01 01 00 51 88 ]wT = 42
2:17:25 PM-> Modbus RTU OK  READ_SIMPLE_AI_DI_STATUS,B[9600],F[N,8,1], , CmdType [-1], Cmd [01 02 00 20 00 02 F8 01], Rec [01 02 01 03 E1 89 ]wT = 41
2:17:25 PM-> Modbus RTU OK  READ_SIMPLE_AI_DO_STATUS,B[9600],F[N,8,1], , CmdType [-1], Cmd [01 01 00 00 00 02 BD CB], Rec [01 01 01 00 51 88 ]wT = 41
2:17:25 PM-> Modbus RTU OK  READ_SIMPLE_AI_ALARM_STATUS,B[9600],F[N,8,1], , CmdType [-1], Cmd [01 01 01 05 00 02 AC 36], Rec [01 01 01 00 51 88 ]wT = 42
2:17:25 PM-> Modbus RTU OK  READ_LOW_ALARM_DO_ON,B[9600],F[N,8,1], , CmdType [-1], Cmd [01 01 01 20 00 02 BD FD], Rec [01 01 01 00 51 88 ]wT = 41
2:17:25 PM-> Modbus RTU OK  READ_HIGH_ALARM_DO_ON,B[9600],F[N,8,1], , CmdType [-1], Cmd [01 01 01 30 00 02 BC 38], Rec [01 01 01 00 51 88 ]wT = 41
2:17:25 PM-> Modbus RTU OK  READ_SIMPLE_AI_DI_STATUS,B[9600],F[N,8,1], , CmdType [-1], Cmd [01 02 00 20 00 02 F8 01], Rec [01 02 01 03 E1 89 ]wT = 42
2:17:25 PM-> Modbus RTU OK  READ_SIMPLE_AI_DO_STATUS,B[9600],F[N,8,1], , CmdType [-1], Cmd [01 01 00 00 00 02 BD CB], Rec [01 01 01 00 51 88 ]wT = 41
2:17:25 PM-> Modbus RTU OK  READ_SIMPLE_AI_ALARM_STATUS,B[9600],F[N,8,1], , CmdType [-1], Cmd [01 01 01 05 00 02 AC 36], Rec [01 01 01 00 51 88 ]wT = 42
2:17:25 PM-> Modbus RTU OK  READ_DI_HIGH_LATCH,B[9600],F[N,8,1], , CmdType [-1], Cmd [01 01 00 40 00 02 BC 1F], Rec [01 01 01 03 11 89 ]wT = 41
2:17:25 PM-> Modbus RTU OK  READ_DI_LOW_LATCH,B[9600],F[N,8,1], , CmdType [-1], Cmd [01 01 00 60 00 02 BD D5], Rec [01 01 01 00 51 88 ]wT = 41
2:17:25 PM-> Modbus RTU OK  READ_CH0_DI_COUNTER,B[9600],F[N,8,1], , CmdType [-1], Cmd [01 03 00 80 00 01 85 E2], Rec [01 03 02 00 00 B8 44 ]wT = 42
2:17:25 PM-> Modbus RTU OK  READ_CH1_DI_COUNTER,B[9600],F[N,8,1], , CmdType [-1], Cmd [01 03 00 81 00 01 D4 22], Rec [01 03 02 00 00 B8 44 ]wT = 42
2:17:25 PM-> Modbus RTU OK  READ_CH0_AI,B[9600],F[N,8,1], , CmdType [-1], Cmd [01 04 00 00 00 01 31 CA], Rec [01 04 02 80 00 D8 F0 ]wT = 42
2:17:26 PM-> Modbus RTU OK  READ_CH1_AI,B[9600],F[N,8,1], , CmdType [-1], Cmd [01 04 00 01 00 01 60 0A], Rec [01 04 02 80 00 D8 F0 ]wT = 43
2:17:26 PM-> Modbus RTU OK  READ_CH2_AI,B[9600],F[N,8,1], , CmdType [-1], Cmd [01 04 00 02 00 01 90 0A], Rec [01 04 02 80 00 D8 F0 ]wT = 42
2:17:26 PM-> Modbus RTU OK  READ_CH3_AI,B[9600],F[N,8,1], , CmdType [-1], Cmd [01 04 00 03 00 01 C1 CA], Rec [01 04 02 80 00 D8 F0 ]wT = 42
2:17:26 PM-> Modbus RTU OK  READ_WDT_STATUS,B[9600],F[N,8,1], , CmdType [-1], Cmd [01 01 01 0D 00 01 6D F5], Rec [01 01 01 00 51 88 ]wT = 42
2:17:26 PM-> Modbus RTU OK  READ_SIMPLE_AI_DI_STATUS,B[9600],F[N,8,1], , CmdType [-1], Cmd [01 02 00 20 00 02 F8 01], Rec [01 02 01 03 E1 89 ]wT = 42
2:17:26 PM-> Modbus RTU OK  READ_SIMPLE_AI_DO_STATUS,B[9600],F[N,8,1], , CmdType [-1], Cmd [01 01 00 00 00 02 BD CB], Rec [01 01 01 00 51 88 ]wT = 41
2:17:26 PM-> Modbus RTU OK  READ_SIMPLE_AI_ALARM_STATUS,B[9600],F[N,8,1], , CmdType [-1], Cmd [01 01 01 05 00 02 AC 36], Rec [01 01 01 00 51 88 ]wT = 41
2:17:26 PM-> Modbus RTU OK  READ_LOW_ALARM_DO_ON,B[9600],F[N,8,1], , CmdType [-1], Cmd [01 01 01 20 00 02 BD FD], Rec [01 01 01 00 51 88 ]wT = 42
2:17:26 PM-> Modbus RTU OK  READ_HIGH_ALARM_DO_ON,B[9600],F[N,8,1], , CmdType [-1], Cmd [01 01 01 30 00 02 BC 38], Rec [01 01 01 00 51 88 ]wT = 41
2:17:26 PM-> Modbus RTU OK  READ_SIMPLE_AI_DI_STATUS,B[9600],F[N,8,1], , CmdType [-1], Cmd [01 02 00 20 00 02 F8 01], Rec [01 02 01 03 E1 89 ]wT = 41
2:17:26 PM-> Modbus RTU OK  READ_SIMPLE_AI_DO_STATUS,B[9600],F[N,8,1], , CmdType [-1], Cmd [01 01 00 00 00 02 BD CB], Rec [01 01 01 00 51 88 ]wT = 41
2:17:26 PM-> Modbus RTU OK  READ_SIMPLE_AI_ALARM_STATUS,B[9600],F[N,8,1], , CmdType [-1], Cmd [01 01 01 05 00 02 AC 36], Rec [01 01 01 00 51 88 ]wT = 41
2:17:26 PM-> Modbus RTU OK  READ_DI_HIGH_LATCH,B[9600],F[N,8,1], , CmdType [-1], Cmd [01 01 00 40 00 02 BC 1F], Rec [01 01 01 03 11 89 ]wT = 41
2:17:26 PM-> Modbus RTU OK  READ_DI_LOW_LATCH,B[9600],F[N,8,1], , CmdType [-1], Cmd [01 01 00 60 00 02 BD D5], Rec [01 01 01 00 51 88 ]wT = 41
2:17:26 PM-> Modbus RTU OK  READ_CH0_DI_COUNTER,B[9600],F[N,8,1], , CmdType [-1], Cmd [01 03 00 80 00 01 85 E2], Rec [01 03 02 00 00 B8 44 ]wT = 42
2:17:26 PM-> Modbus RTU OK  READ_CH1_DI_COUNTER,B[9600],F[N,8,1], , CmdType [-1], Cmd [01 03 00 81 00 01 D4 22], Rec [01 03 02 00 00 B8 44 ]wT = 43
2:17:26 PM-> Modbus RTU OK  READ_CH0_AI,B[9600],F[N,8,1], , CmdType [-1], Cmd [01 04 00 00 00 01 31 CA], Rec [01 04 02 80 00 D8 F0 ]wT = 42
2:17:26 PM-> Modbus RTU OK  READ_CH1_AI,B[9600],F[N,8,1], , CmdType [-1], Cmd [01 04 00 01 00 01 60 0A], Rec [01 04 02 80 00 D8 F0 ]wT = 42
2:17:26 PM-> Modbus RTU OK  READ_CH2_AI,B[9600],F[N,8,1], , CmdType [-1], Cmd [01 04 00 02 00 01 90 0A], Rec [01 04 02 80 00 D8 F0 ]wT = 43
2:17:26 PM-> Modbus RTU OK  READ_CH3_AI,B[9600],F[N,8,1], , CmdType [-1], Cmd [01 04 00 03 00 01 C1 CA], Rec [01 04 02 80 00 D8 F0 ]wT = 42
2:17:27 PM-> Modbus RTU OK  READ_WDT_STATUS,B[9600],F[N,8,1], , CmdType [-1], Cmd [01 01 01 0D 00 01 6D F5], Rec [01 01 01 00 51 88 ]wT = 41
2:17:27 PM-> Modbus RTU OK  READ_SIMPLE_AI_DI_STATUS,B[9600],F[N,8,1], , CmdType [-1], Cmd [01 02 00 20 00 02 F8 01], Rec [01 02 01 03 E1 89 ]wT = 43
2:17:27 PM-> Modbus RTU OK  READ_SIMPLE_AI_DO_STATUS,B[9600],F[N,8,1], , CmdType [-1], Cmd [01 01 00 00 00 02 BD CB], Rec [01 01 01 00 51 88 ]wT = 41
2:17:27 PM-> Modbus RTU OK  READ_SIMPLE_AI_ALARM_STATUS,B[9600],F[N,8,1], , CmdType [-1], Cmd [01 01 01 05 00 02 AC 36], Rec [01 01 01 00 51 88 ]wT = 41
2:17:27 PM-> Modbus RTU OK  READ_LOW_ALARM_DO_ON,B[9600],F[N,8,1], , CmdType [-1], Cmd [01 01 01 20 00 02 BD FD], Rec [01 01 01 00 51 88 ]wT = 41
2:17:27 PM-> Modbus RTU OK  READ_HIGH_ALARM_DO_ON,B[9600],F[N,8,1], , CmdType [-1], Cmd [01 01 01 30 00 02 BC 38], Rec [01 01 01 00 51 88 ]wT = 41
2:17:27 PM-> Modbus RTU OK  READ_SIMPLE_AI_DI_STATUS,B[9600],F[N,8,1], , CmdType [-1], Cmd [01 02 00 20 00 02 F8 01], Rec [01 02 01 03 E1 89 ]wT = 41
2:17:27 PM-> Modbus RTU OK  READ_SIMPLE_AI_DO_STATUS,B[9600],F[N,8,1], , CmdType [-1], Cmd [01 01 00 00 00 02 BD CB], Rec [01 01 01 00 51 88 ]wT = 42
2:17:27 PM-> Modbus RTU OK  READ_SIMPLE_AI_ALARM_STATUS,B[9600],F[N,8,1], , CmdType [-1], Cmd [01 01 01 05 00 02 AC 36], Rec [01 01 01 00 51 88 ]wT = 41
2:17:27 PM-> Modbus RTU OK  READ_DI_HIGH_LATCH,B[9600],F[N,8,1], , CmdType [-1], Cmd [01 01 00 40 00 02 BC 1F], Rec [01 01 01 03 11 89 ]wT = 41
2:17:27 PM-> Modbus RTU OK  READ_DI_LOW_LATCH,B[9600],F[N,8,1], , CmdType [-1], Cmd [01 01 00 60 00 02 BD D5], Rec [01 01 01 00 51 88 ]wT = 42
2:17:27 PM-> Modbus RTU OK  READ_CH0_DI_COUNTER,B[9600],F[N,8,1], , CmdType [-1], Cmd [01 03 00 80 00 01 85 E2], Rec [01 03 02 00 00 B8 44 ]wT = 42
2:17:27 PM-> Modbus RTU OK  READ_CH1_DI_COUNTER,B[9600],F[N,8,1], , CmdType [-1], Cmd [01 03 00 81 00 01 D4 22], Rec [01 03 02 00 00 B8 44 ]wT = 42
2:17:27 PM-> Modbus RTU OK  SET_RESPONSE_DELAY_TIME,B[9600],F[N,8,1], , CmdType [11], Cmd [01 46 36 00 F7 AD], Rec [01 46 36 00 F7 AD ]wT = 39
2:17:27 PM-> Modbus RTU OK  GET_RESPONSE_DELAY_TIME,B[9600],F[N,8,1], , CmdType [10], Cmd [01 46 35 D2 77], Rec [01 46 35 00 F7 5D ]wT = 38
2:17:27 PM-> Modbus RTU OK  SET_MODBUS_MISC,B[9600],F[N,8,1], , CmdType [11], Cmd [01 05 01 0E 00 00 AD F5], Rec [01 05 01 0E 00 00 AD F5 ]wT = 39
2:17:27 PM-> Modbus RTU OK  SET_MODBUS_DATAFORMAT,B[9600],F[N,8,1], , CmdType [11], Cmd [01 05 01 0C FF 00 4D C5], Rec [01 05 01 0C FF 00 4D C5 ]wT = 39
2:17:27 PM-> Modbus RTU OK  SET_MODULE_ADDRESS,B[9600],F[N,8,1], , CmdType [11], Cmd [01 06 01 E4 00 02 49 C0], Rec [01 06 01 E4 00 02 49 C0 ]wT = 39
2:17:27 PM-> Modbus RTU OK  GET_MODULE_NAME,B[9600],F[N,8,1], , CmdType [100], Cmd [02 46 00 E2 60], Rec [02 46 00 07 22 40 01 67 18 ]wT = 41
2:17:27 PM-> Modbus RTU OK  GET_MODULE_ADDRESS,B[9600],F[N,8,1], , CmdType [100], Cmd [02 03 01 E4 00 01 C5 F2], Rec [02 03 02 00 02 7D 85 ]wT = 42
2:17:28 PM-> Modbus RTU OK  GET_MODBUS_MISC,B[9600],F[N,8,1], , CmdType [10], Cmd [02 01 01 0E 00 08 5D C0], Rec [02 01 01 00 51 CC ]wT = 42
2:17:28 PM-> Modbus RTU OK  GET_MODBUS_DATAFORMAT,B[9600],F[N,8,1], , CmdType [10], Cmd [02 01 01 0C 00 01 3C 06], Rec [02 01 01 01 90 0C ]wT = 42
2:17:28 PM-> Modbus RTU OK  GET_RESPONSE_DELAY_TIME,B[9600],F[N,8,1], , CmdType [10], Cmd [02 46 35 22 77], Rec [02 46 35 00 F7 19 ]wT = 38
2:17:28 PM-> Modbus RTU OK  READ_CH0_AI,B[9600],F[N,8,1], , CmdType [-1], Cmd [02 04 00 00 00 01 31 F9], Rec [02 04 02 80 00 9C F0 ]wT = 42
2:17:28 PM-> Modbus RTU OK  READ_CH1_AI,B[9600],F[N,8,1], , CmdType [-1], Cmd [02 04 00 01 00 01 60 39], Rec [02 04 02 80 00 9C F0 ]wT = 43
2:17:28 PM-> Modbus RTU OK  READ_CH2_AI,B[9600],F[N,8,1], , CmdType [-1], Cmd [02 04 00 02 00 01 90 39], Rec [02 04 02 80 00 9C F0 ]wT = 42
2:17:28 PM-> Modbus RTU OK  READ_CH3_AI,B[9600],F[N,8,1], , CmdType [-1], Cmd [02 04 00 03 00 01 C1 F9], Rec [02 04 02 80 00 9C F0 ]wT = 42
2:17:28 PM-> Modbus RTU OK  READ_WDT_STATUS,B[9600],F[N,8,1], , CmdType [-1], Cmd [02 01 01 0D 00 01 6D C6], Rec [02 01 01 00 51 CC ]wT = 42
2:17:28 PM-> Modbus RTU OK  READ_SIMPLE_AI_DI_STATUS,B[9600],F[N,8,1], , CmdType [-1], Cmd [02 02 00 20 00 02 F8 32], Rec [02 02 01 03 E1 CD ]wT = 41
2:17:28 PM-> Modbus RTU OK  READ_SIMPLE_AI_DO_STATUS,B[9600],F[N,8,1], , CmdType [-1], Cmd [02 01 00 00 00 02 BD F8], Rec [02 01 01 00 51 CC ]wT = 41
2:17:28 PM-> Modbus RTU OK  READ_SIMPLE_AI_ALARM_STATUS,B[9600],F[N,8,1], , CmdType [-1], Cmd [02 01 01 05 00 02 AC 05], Rec [02 01 01 00 51 CC ]wT = 41
2:17:28 PM-> Modbus RTU OK  READ_LOW_ALARM_DO_ON,B[9600],F[N,8,1], , CmdType [-1], Cmd [02 01 01 20 00 02 BD CE], Rec [02 01 01 00 51 CC ]wT = 41
2:17:28 PM-> Modbus RTU OK  READ_HIGH_ALARM_DO_ON,B[9600],F[N,8,1], , CmdType [-1], Cmd [02 01 01 30 00 02 BC 0B], Rec [02 01 01 00 51 CC ]wT = 41
2:17:28 PM-> Modbus RTU OK  READ_SIMPLE_AI_DI_STATUS,B[9600],F[N,8,1], , CmdType [-1], Cmd [02 02 00 20 00 02 F8 32], Rec [02 02 01 03 E1 CD ]wT = 41
2:17:28 PM-> Modbus RTU OK  READ_SIMPLE_AI_DO_STATUS,B[9600],F[N,8,1], , CmdType [-1], Cmd [02 01 00 00 00 02 BD F8], Rec [02 01 01 00 51 CC ]wT = 41
2:17:28 PM-> Modbus RTU OK  READ_SIMPLE_AI_ALARM_STATUS,B[9600],F[N,8,1], , CmdType [-1], Cmd [02 01 01 05 00 02 AC 05], Rec [02 01 01 00 51 CC ]wT = 42
2:17:28 PM-> Modbus RTU OK  READ_DI_HIGH_LATCH,B[9600],F[N,8,1], , CmdType [-1], Cmd [02 01 00 40 00 02 BC 2C], Rec [02 01 01 03 11 CD ]wT = 41
2:17:28 PM-> Modbus RTU OK  READ_DI_LOW_LATCH,B[9600],F[N,8,1], , CmdType [-1], Cmd [02 01 00 60 00 02 BD E6], Rec [02 01 01 00 51 CC ]wT = 41
2:17:28 PM-> Modbus RTU OK  READ_CH0_DI_COUNTER,B[9600],F[N,8,1], , CmdType [-1], Cmd [02 03 00 80 00 01 85 D1], Rec [02 03 02 00 00 FC 44 ]wT = 43
2:17:28 PM-> Modbus RTU OK  READ_CH1_DI_COUNTER,B[9600],F[N,8,1], , CmdType [-1], Cmd [02 03 00 81 00 01 D4 11], Rec [02 03 02 00 00 FC 44 ]wT = 42
2:17:28 PM-> Modbus RTU OK  READ_CH0_AI,B[9600],F[N,8,1], , CmdType [-1], Cmd [02 04 00 00 00 01 31 F9], Rec [02 04 02 80 00 9C F0 ]wT = 42
2:17:28 PM-> Modbus RTU OK  READ_CH1_AI,B[9600],F[N,8,1], , CmdType [-1], Cmd [02 04 00 01 00 01 60 39], Rec [02 04 02 80 00 9C F0 ]wT = 43
2:17:28 PM-> Modbus RTU OK  READ_CH2_AI,B[9600],F[N,8,1], , CmdType [-1], Cmd [02 04 00 02 00 01 90 39], Rec [02 04 02 80 00 9C F0 ]wT = 42
2:17:29 PM-> Modbus RTU OK  READ_CH3_AI,B[9600],F[N,8,1], , CmdType [-1], Cmd [02 04 00 03 00 01 C1 F9], Rec [02 04 02 80 00 9C F0 ]wT = 43
2:17:29 PM-> Modbus RTU OK  READ_WDT_STATUS,B[9600],F[N,8,1], , CmdType [-1], Cmd [02 01 01 0D 00 01 6D C6], Rec [02 01 01 00 51 CC ]wT = 42
2:17:29 PM-> Modbus RTU OK  READ_SIMPLE_AI_DI_STATUS,B[9600],F[N,8,1], , CmdType [-1], Cmd [02 02 00 20 00 02 F8 32], Rec [02 02 01 03 E1 CD ]wT = 41
2:17:29 PM-> Modbus RTU OK  READ_SIMPLE_AI_DO_STATUS,B[9600],F[N,8,1], , CmdType [-1], Cmd [02 01 00 00 00 02 BD F8], Rec [02 01 01 00 51 CC ]wT = 41
2:17:29 PM-> Modbus RTU OK  READ_SIMPLE_AI_ALARM_STATUS,B[9600],F[N,8,1], , CmdType [-1], Cmd [02 01 01 05 00 02 AC 05], Rec [02 01 01 00 51 CC ]wT = 42
2:17:29 PM-> Modbus RTU OK  READ_LOW_ALARM_DO_ON,B[9600],F[N,8,1], , CmdType [-1], Cmd [02 01 01 20 00 02 BD CE], Rec [02 01 01 00 51 CC ]wT = 41
2:17:29 PM-> Modbus RTU OK  READ_HIGH_ALARM_DO_ON,B[9600],F[N,8,1], , CmdType [-1], Cmd [02 01 01 30 00 02 BC 0B], Rec [02 01 01 00 51 CC ]wT = 41
2:17:29 PM-> Modbus RTU OK  READ_SIMPLE_AI_DI_STATUS,B[9600],F[N,8,1], , CmdType [-1], Cmd [02 02 00 20 00 02 F8 32], Rec [02 02 01 03 E1 CD ]wT = 42
2:17:29 PM-> Modbus RTU OK  READ_SIMPLE_AI_DO_STATUS,B[9600],F[N,8,1], , CmdType [-1], Cmd [02 01 00 00 00 02 BD F8], Rec [02 01 01 00 51 CC ]wT = 41
2:17:29 PM-> Modbus RTU OK  READ_SIMPLE_AI_ALARM_STATUS,B[9600],F[N,8,1], , CmdType [-1], Cmd [02 01 01 05 00 02 AC 05], Rec [02 01 01 00 51 CC ]wT = 41
2:17:29 PM-> Modbus RTU OK  READ_DI_HIGH_LATCH,B[9600],F[N,8,1], , CmdType [-1], Cmd [02 01 00 40 00 02 BC 2C], Rec [02 01 01 03 11 CD ]wT = 42
2:17:29 PM-> Modbus RTU OK  READ_DI_LOW_LATCH,B[9600],F[N,8,1], , CmdType [-1], Cmd [02 01 00 60 00 02 BD E6], Rec [02 01 01 00 51 CC ]wT = 41
2:17:29 PM-> Modbus RTU OK  READ_CH0_DI_COUNTER,B[9600],F[N,8,1], , CmdType [-1], Cmd [02 03 00 80 00 01 85 D1], Rec [02 03 02 00 00 FC 44 ]wT = 42
2:17:29 PM-> Modbus RTU OK  READ_CH1_DI_COUNTER,B[9600],F[N,8,1], , CmdType [-1], Cmd [02 03 00 81 00 01 D4 11], Rec [02 03 02 00 00 FC 44 ]wT = 43
2:17:29 PM-> Modbus RTU OK  READ_CH0_AI,B[9600],F[N,8,1], , CmdType [-1], Cmd [02 04 00 00 00 01 31 F9], Rec [02 04 02 80 00 9C F0 ]wT = 42
2:17:29 PM-> Modbus RTU OK  READ_CH1_AI,B[9600],F[N,8,1], , CmdType [-1], Cmd [02 04 00 01 00 01 60 39], Rec [02 04 02 80 00 9C F0 ]wT = 42
2:17:29 PM-> Modbus RTU OK  READ_CH2_AI,B[9600],F[N,8,1], , CmdType [-1], Cmd [02 04 00 02 00 01 90 39], Rec [02 04 02 80 00 9C F0 ]wT = 42
2:17:29 PM-> Modbus RTU OK  READ_CH3_AI,B[9600],F[N,8,1], , CmdType [-1], Cmd [02 04 00 03 00 01 C1 F9], Rec [02 04 02 80 00 9C F0 ]wT = 42
2:17:29 PM-> Modbus RTU OK  READ_WDT_STATUS,B[9600],F[N,8,1], , CmdType [-1], Cmd [02 01 01 0D 00 01 6D C6], Rec [02 01 01 00 51 CC ]wT = 42
2:17:29 PM-> Modbus RTU OK  READ_SIMPLE_AI_DI_STATUS,B[9600],F[N,8,1], , CmdType [-1], Cmd [02 02 00 20 00 02 F8 32], Rec [02 02 01 03 E1 CD ]wT = 41
2:17:29 PM-> Modbus RTU OK  READ_SIMPLE_AI_DO_STATUS,B[9600],F[N,8,1], , CmdType [-1], Cmd [02 01 00 00 00 02 BD F8], Rec [02 01 01 00 51 CC ]wT = 41
2:17:29 PM-> Modbus RTU OK  READ_SIMPLE_AI_ALARM_STATUS,B[9600],F[N,8,1], , CmdType [-1], Cmd [02 01 01 05 00 02 AC 05], Rec [02 01 01 00 51 CC ]wT = 42
2:17:29 PM-> Modbus RTU OK  READ_LOW_ALARM_DO_ON,B[9600],F[N,8,1], , CmdType [-1], Cmd [02 01 01 20 00 02 BD CE], Rec [02 01 01 00 51 CC ]wT = 41
2:17:30 PM-> Modbus RTU OK  READ_HIGH_ALARM_DO_ON,B[9600],F[N,8,1], , CmdType [-1], Cmd [02 01 01 30 00 02 BC 0B], Rec [02 01 01 00 51 CC ]wT = 41
2:17:30 PM-> Modbus RTU OK  READ_SIMPLE_AI_DI_STATUS,B[9600],F[N,8,1], , CmdType [-1], Cmd [02 02 00 20 00 02 F8 32], Rec [02 02 01 03 E1 CD ]wT = 42
2:17:30 PM-> Modbus RTU OK  READ_SIMPLE_AI_DO_STATUS,B[9600],F[N,8,1], , CmdType [-1], Cmd [02 01 00 00 00 02 BD F8], Rec [02 01 01 00 51 CC ]wT = 41
2:17:30 PM-> Modbus RTU OK  READ_SIMPLE_AI_ALARM_STATUS,B[9600],F[N,8,1], , CmdType [-1], Cmd [02 01 01 05 00 02 AC 05], Rec [02 01 01 00 51 CC ]wT = 42
2:17:30 PM-> Modbus RTU OK  READ_DI_HIGH_LATCH,B[9600],F[N,8,1], , CmdType [-1], Cmd [02 01 00 40 00 02 BC 2C], Rec [02 01 01 03 11 CD ]wT = 42
2:17:30 PM-> Modbus RTU OK  READ_DI_LOW_LATCH,B[9600],F[N,8,1], , CmdType [-1], Cmd [02 01 00 60 00 02 BD E6], Rec [02 01 01 00 51 CC ]wT = 41
2:17:30 PM-> Modbus RTU OK  READ_CH0_DI_COUNTER,B[9600],F[N,8,1], , CmdType [-1], Cmd [02 03 00 80 00 01 85 D1], Rec [02 03 02 00 00 FC 44 ]wT = 42
