#region 7005
case "7005":
titleList.Add("GET_MODULE_NAME");
rtuList.Add("01 46 00 12 60");
asciiList.Add(":0146001260");
modRecList.Add("01 46 00 00 70 05 00 07 ED ");
titleList.Add("GET_MODULE_FIRMWARE");
rtuList.Add("01 46 20 13 B8");
asciiList.Add(":01462013B8");
modRecList.Add("01 46 20 A5 02 00 92 86 ");
titleList.Add("GET_COMMUNICATE_PARAMETER");
rtuList.Add("01 46 05 00 E3 5D");
asciiList.Add(":01460500E35D");
modRecList.Add("01 46 05 00 06 00 00 00 01 00 00 E8 43 ");
titleList.Add("GET_MODULE_ADDRESS");
rtuList.Add("01 03 01 E4 00 01 C5 C1");
asciiList.Add(":010301E40001C5C1");
modRecList.Add("01 03 02 00 01 79 84 ");
titleList.Add("GET_MODBUS_MISC");
rtuList.Add("01 46 29 D3 BE");
asciiList.Add(":014629D3BE");
modRecList.Add("01 46 29 00 FF 9D ");
titleList.Add("GET_MODBUS_DATAFORMAT");
rtuList.Add("01 01 01 0C 00 01 3C 35");
asciiList.Add(":0101010C00013C35");
modRecList.Add("01 01 01 01 90 48 ");
titleList.Add("GET_RESPONSE_DELAY_TIME");
rtuList.Add("01 46 35 D2 77");
asciiList.Add(":014635D277");
modRecList.Add("01 46 35 00 F7 5D ");
titleList.Add("GET_CHANNEL_ENABLE_STATUS");
rtuList.Add("01 46 25 D3 BB");
asciiList.Add(":014625D3BB");
modRecList.Add("01 46 25 FF BA DD ");
titleList.Add("GET_CH0_INPUT_RANGE");
rtuList.Add("01 46 07 00 00 BD 49");
asciiList.Add(":0146070000BD49");
modRecList.Add("01 46 07 60 E2 15 ");
titleList.Add("GET_CH1_INPUT_RANGE");
rtuList.Add("01 46 07 00 01 7C 89");
asciiList.Add(":01460700017C89");
modRecList.Add("01 46 07 60 E2 15 ");
titleList.Add("GET_CH2_INPUT_RANGE");
rtuList.Add("01 46 07 00 02 3C 88");
asciiList.Add(":01460700023C88");
modRecList.Add("01 46 07 60 E2 15 ");
titleList.Add("GET_CH3_INPUT_RANGE");
rtuList.Add("01 46 07 00 03 FD 48");
asciiList.Add(":0146070003FD48");
modRecList.Add("01 46 07 60 E2 15 ");
titleList.Add("GET_CH4_INPUT_RANGE");
rtuList.Add("01 46 07 00 04 BC 8A");
asciiList.Add(":0146070004BC8A");
modRecList.Add("01 46 07 60 E2 15 ");
titleList.Add("GET_CH5_INPUT_RANGE");
rtuList.Add("01 46 07 00 05 7D 4A");
asciiList.Add(":01460700057D4A");
modRecList.Add("01 46 07 60 E2 15 ");
titleList.Add("GET_CH6_INPUT_RANGE");
rtuList.Add("01 46 07 00 06 3D 4B");
asciiList.Add(":01460700063D4B");
modRecList.Add("01 46 07 60 E2 15 ");
titleList.Add("GET_CH7_INPUT_RANGE");
rtuList.Add("01 46 07 00 07 FC 8B");
asciiList.Add(":0146070007FC8B");
modRecList.Add("01 46 07 60 E2 15 ");
titleList.Add("GET_CH0_TEMPERATURE_OFFSET");
rtuList.Add("01 03 01 20 00 01 84 3C");
asciiList.Add(":010301200001843C");
modRecList.Add("01 03 02 00 00 B8 44 ");
titleList.Add("GET_CH1_TEMPERATURE_OFFSET");
rtuList.Add("01 03 01 21 00 01 D5 FC");
asciiList.Add(":010301210001D5FC");
modRecList.Add("01 03 02 00 00 B8 44 ");
titleList.Add("GET_CH2_TEMPERATURE_OFFSET");
rtuList.Add("01 03 01 22 00 01 25 FC");
asciiList.Add(":01030122000125FC");
modRecList.Add("01 03 02 00 00 B8 44 ");
titleList.Add("GET_CH3_TEMPERATURE_OFFSET");
rtuList.Add("01 03 01 23 00 01 74 3C");
asciiList.Add(":010301230001743C");
modRecList.Add("01 03 02 00 00 B8 44 ");
titleList.Add("GET_CH4_TEMPERATURE_OFFSET");
rtuList.Add("01 03 01 24 00 01 C5 FD");
asciiList.Add(":010301240001C5FD");
modRecList.Add("01 03 02 00 00 B8 44 ");
titleList.Add("GET_CH5_TEMPERATURE_OFFSET");
rtuList.Add("01 03 01 25 00 01 94 3D");
asciiList.Add(":010301250001943D");
modRecList.Add("01 03 02 00 00 B8 44 ");
titleList.Add("GET_CH6_TEMPERATURE_OFFSET");
rtuList.Add("01 03 01 26 00 01 64 3D");
asciiList.Add(":010301260001643D");
modRecList.Add("01 03 02 00 00 B8 44 ");
titleList.Add("GET_CH7_TEMPERATURE_OFFSET");
rtuList.Add("01 03 01 27 00 01 35 FD");
asciiList.Add(":01030127000135FD");
modRecList.Add("01 03 02 00 00 B8 44 ");
titleList.Add("READ_CH0_ALARM_DO_CHANNELS");
rtuList.Add("01 03 02 E0 00 01 84 44");
asciiList.Add(":010302E000018444");
modRecList.Add("01 03 02 00 00 B8 44 ");
titleList.Add("READ_CH1_ALARM_DO_CHANNELS");
rtuList.Add("01 03 02 E1 00 01 D5 84");
asciiList.Add(":010302E10001D584");
modRecList.Add("01 03 02 00 00 B8 44 ");
titleList.Add("READ_CH2_ALARM_DO_CHANNELS");
rtuList.Add("01 03 02 E2 00 01 25 84");
asciiList.Add(":010302E200012584");
modRecList.Add("01 03 02 00 00 B8 44 ");
titleList.Add("READ_CH3_ALARM_DO_CHANNELS");
rtuList.Add("01 03 02 E3 00 01 74 44");
asciiList.Add(":010302E300017444");
modRecList.Add("01 03 02 00 00 B8 44 ");
titleList.Add("READ_CH4_ALARM_DO_CHANNELS");
rtuList.Add("01 03 02 E4 00 01 C5 85");
asciiList.Add(":010302E40001C585");
modRecList.Add("01 03 02 00 00 B8 44 ");
titleList.Add("READ_CH5_ALARM_DO_CHANNELS");
rtuList.Add("01 03 02 E5 00 01 94 45");
asciiList.Add(":010302E500019445");
modRecList.Add("01 03 02 00 00 B8 44 ");
titleList.Add("GET_CH0_HIGH_ALARM_ENABLE_STATUS");
rtuList.Add("01 01 01 40 00 01 FD E2");
asciiList.Add(":010101400001FDE2");
modRecList.Add("01 01 01 00 51 88 ");
titleList.Add("GET_CH0_HIGH_ALARM_LIMIT");
rtuList.Add("01 03 00 E0 00 01 85 FC");
asciiList.Add(":010300E0000185FC");
modRecList.Add("01 03 02 00 00 B8 44 ");
titleList.Add("GET_CH0_HIGH_ALARM_DOCH");
rtuList.Add("01 03 01 40 00 01 84 22");
asciiList.Add(":0103014000018422");
modRecList.Add("01 03 02 00 00 B8 44 ");
titleList.Add("GET_CH1_HIGH_ALARM_ENABLE_STATUS");
rtuList.Add("01 01 01 41 00 01 AC 22");
asciiList.Add(":010101410001AC22");
modRecList.Add("01 01 01 00 51 88 ");
titleList.Add("GET_CH1_HIGH_ALARM_LIMIT");
rtuList.Add("01 03 00 E1 00 01 D4 3C");
asciiList.Add(":010300E10001D43C");
modRecList.Add("01 03 02 00 00 B8 44 ");
titleList.Add("GET_CH1_HIGH_ALARM_DOCH");
rtuList.Add("01 03 01 41 00 01 D5 E2");
asciiList.Add(":010301410001D5E2");
modRecList.Add("01 03 02 00 00 B8 44 ");
titleList.Add("GET_CH2_HIGH_ALARM_ENABLE_STATUS");
rtuList.Add("01 01 01 42 00 01 5C 22");
asciiList.Add(":0101014200015C22");
modRecList.Add("01 01 01 00 51 88 ");
titleList.Add("GET_CH2_HIGH_ALARM_LIMIT");
rtuList.Add("01 03 00 E2 00 01 24 3C");
asciiList.Add(":010300E20001243C");
modRecList.Add("01 03 02 00 00 B8 44 ");
titleList.Add("GET_CH2_HIGH_ALARM_DOCH");
rtuList.Add("01 03 01 42 00 01 25 E2");
asciiList.Add(":01030142000125E2");
modRecList.Add("01 03 02 00 00 B8 44 ");
titleList.Add("GET_CH3_HIGH_ALARM_ENABLE_STATUS");
rtuList.Add("01 01 01 43 00 01 0D E2");
asciiList.Add(":0101014300010DE2");
modRecList.Add("01 01 01 00 51 88 ");
titleList.Add("GET_CH3_HIGH_ALARM_LIMIT");
rtuList.Add("01 03 00 E3 00 01 75 FC");
asciiList.Add(":010300E3000175FC");
modRecList.Add("01 03 02 00 00 B8 44 ");
titleList.Add("GET_CH3_HIGH_ALARM_DOCH");
rtuList.Add("01 03 01 43 00 01 74 22");
asciiList.Add(":0103014300017422");
modRecList.Add("01 03 02 00 00 B8 44 ");
titleList.Add("GET_CH4_HIGH_ALARM_ENABLE_STATUS");
rtuList.Add("01 01 01 44 00 01 BC 23");
asciiList.Add(":010101440001BC23");
modRecList.Add("01 01 01 00 51 88 ");
titleList.Add("GET_CH4_HIGH_ALARM_LIMIT");
rtuList.Add("01 03 00 E4 00 01 C4 3D");
asciiList.Add(":010300E40001C43D");
modRecList.Add("01 03 02 00 00 B8 44 ");
titleList.Add("GET_CH4_HIGH_ALARM_DOCH");
rtuList.Add("01 03 01 44 00 01 C5 E3");
asciiList.Add(":010301440001C5E3");
modRecList.Add("01 03 02 00 00 B8 44 ");
titleList.Add("GET_CH5_HIGH_ALARM_ENABLE_STATUS");
rtuList.Add("01 01 01 45 00 01 ED E3");
asciiList.Add(":010101450001EDE3");
modRecList.Add("01 01 01 00 51 88 ");
titleList.Add("GET_CH5_HIGH_ALARM_LIMIT");
rtuList.Add("01 03 00 E5 00 01 95 FD");
asciiList.Add(":010300E5000195FD");
modRecList.Add("01 03 02 00 00 B8 44 ");
titleList.Add("GET_CH5_HIGH_ALARM_DOCH");
rtuList.Add("01 03 01 45 00 01 94 23");
asciiList.Add(":0103014500019423");
modRecList.Add("01 03 02 00 00 B8 44 ");
titleList.Add("GET_CH6_HIGH_ALARM_ENABLE_STATUS");
rtuList.Add("01 01 01 46 00 01 1D E3");
asciiList.Add(":0101014600011DE3");
modRecList.Add("01 01 01 00 51 88 ");
titleList.Add("GET_CH6_HIGH_ALARM_LIMIT");
rtuList.Add("01 03 00 E6 00 01 65 FD");
asciiList.Add(":010300E6000165FD");
modRecList.Add("01 03 02 00 00 B8 44 ");
titleList.Add("GET_CH6_HIGH_ALARM_DOCH");
rtuList.Add("01 03 01 46 00 01 64 23");
asciiList.Add(":0103014600016423");
modRecList.Add("01 03 02 00 00 B8 44 ");
titleList.Add("GET_CH7_HIGH_ALARM_ENABLE_STATUS");
rtuList.Add("01 01 01 47 00 01 4C 23");
asciiList.Add(":0101014700014C23");
modRecList.Add("01 01 01 00 51 88 ");
titleList.Add("GET_CH7_HIGH_ALARM_LIMIT");
rtuList.Add("01 03 00 E7 00 01 34 3D");
asciiList.Add(":010300E70001343D");
modRecList.Add("01 03 02 00 00 B8 44 ");
titleList.Add("GET_CH7_HIGH_ALARM_DOCH");
rtuList.Add("01 03 01 47 00 01 35 E3");
asciiList.Add(":01030147000135E3");
modRecList.Add("01 03 02 00 00 B8 44 ");
titleList.Add("GET_CH0_LOW_ALARM_ENABLE_STATUS");
rtuList.Add("01 01 01 48 00 01 7C 20");
asciiList.Add(":0101014800017C20");
modRecList.Add("01 01 01 00 51 88 ");
titleList.Add("GET_CH0_LOW_ALARM_LIMIT");
rtuList.Add("01 03 00 E8 00 01 04 3E");
asciiList.Add(":010300E80001043E");
modRecList.Add("01 03 02 00 00 B8 44 ");
titleList.Add("GET_CH0_LOW_ALARM_DOCH");
rtuList.Add("01 03 01 48 00 01 05 E0");
asciiList.Add(":01030148000105E0");
modRecList.Add("01 03 02 00 00 B8 44 ");
titleList.Add("GET_CH1_LOW_ALARM_ENABLE_STATUS");
rtuList.Add("01 01 01 49 00 01 2D E0");
asciiList.Add(":0101014900012DE0");
modRecList.Add("01 01 01 00 51 88 ");
titleList.Add("GET_CH1_LOW_ALARM_LIMIT");
rtuList.Add("01 03 00 E9 00 01 55 FE");
asciiList.Add(":010300E9000155FE");
modRecList.Add("01 03 02 00 00 B8 44 ");
titleList.Add("GET_CH1_LOW_ALARM_DOCH");
rtuList.Add("01 03 01 49 00 01 54 20");
asciiList.Add(":0103014900015420");
modRecList.Add("01 03 02 00 00 B8 44 ");
titleList.Add("GET_CH2_LOW_ALARM_ENABLE_STATUS");
rtuList.Add("01 01 01 4A 00 01 DD E0");
asciiList.Add(":0101014A0001DDE0");
modRecList.Add("01 01 01 00 51 88 ");
titleList.Add("GET_CH2_LOW_ALARM_LIMIT");
rtuList.Add("01 03 00 EA 00 01 A5 FE");
asciiList.Add(":010300EA0001A5FE");
modRecList.Add("01 03 02 00 00 B8 44 ");
titleList.Add("GET_CH2_LOW_ALARM_DOCH");
rtuList.Add("01 03 01 4A 00 01 A4 20");
asciiList.Add(":0103014A0001A420");
modRecList.Add("01 03 02 00 00 B8 44 ");
titleList.Add("GET_CH3_LOW_ALARM_ENABLE_STATUS");
rtuList.Add("01 01 01 4B 00 01 8C 20");
asciiList.Add(":0101014B00018C20");
modRecList.Add("01 01 01 00 51 88 ");
titleList.Add("GET_CH3_LOW_ALARM_LIMIT");
rtuList.Add("01 03 00 EB 00 01 F4 3E");
asciiList.Add(":010300EB0001F43E");
modRecList.Add("01 03 02 00 00 B8 44 ");
titleList.Add("GET_CH3_LOW_ALARM_DOCH");
rtuList.Add("01 03 01 4B 00 01 F5 E0");
asciiList.Add(":0103014B0001F5E0");
modRecList.Add("01 03 02 00 00 B8 44 ");
titleList.Add("GET_CH4_LOW_ALARM_ENABLE_STATUS");
rtuList.Add("01 01 01 4C 00 01 3D E1");
asciiList.Add(":0101014C00013DE1");
modRecList.Add("01 01 01 00 51 88 ");
titleList.Add("GET_CH4_LOW_ALARM_LIMIT");
rtuList.Add("01 03 00 EC 00 01 45 FF");
asciiList.Add(":010300EC000145FF");
modRecList.Add("01 03 02 00 00 B8 44 ");
titleList.Add("GET_CH4_LOW_ALARM_DOCH");
rtuList.Add("01 03 01 4C 00 01 44 21");
asciiList.Add(":0103014C00014421");
modRecList.Add("01 03 02 00 00 B8 44 ");
titleList.Add("GET_CH5_LOW_ALARM_ENABLE_STATUS");
rtuList.Add("01 01 01 4D 00 01 6C 21");
asciiList.Add(":0101014D00016C21");
modRecList.Add("01 01 01 00 51 88 ");
titleList.Add("GET_CH5_LOW_ALARM_LIMIT");
rtuList.Add("01 03 00 ED 00 01 14 3F");
asciiList.Add(":010300ED0001143F");
modRecList.Add("01 03 02 00 00 B8 44 ");
titleList.Add("GET_CH5_LOW_ALARM_DOCH");
rtuList.Add("01 03 01 4D 00 01 15 E1");
asciiList.Add(":0103014D000115E1");
modRecList.Add("01 03 02 00 00 B8 44 ");
titleList.Add("GET_CH6_LOW_ALARM_ENABLE_STATUS");
rtuList.Add("01 01 01 4E 00 01 9C 21");
asciiList.Add(":0101014E00019C21");
modRecList.Add("01 01 01 00 51 88 ");
titleList.Add("GET_CH6_LOW_ALARM_LIMIT");
rtuList.Add("01 03 00 EE 00 01 E4 3F");
asciiList.Add(":010300EE0001E43F");
modRecList.Add("01 03 02 00 00 B8 44 ");
titleList.Add("GET_CH6_LOW_ALARM_DOCH");
rtuList.Add("01 03 01 4E 00 01 E5 E1");
asciiList.Add(":0103014E0001E5E1");
modRecList.Add("01 03 02 00 00 B8 44 ");
titleList.Add("GET_CH7_LOW_ALARM_ENABLE_STATUS");
rtuList.Add("01 01 01 4F 00 01 CD E1");
asciiList.Add(":0101014F0001CDE1");
modRecList.Add("01 01 01 00 51 88 ");
titleList.Add("GET_CH7_LOW_ALARM_LIMIT");
rtuList.Add("01 03 00 EF 00 01 B5 FF");
asciiList.Add(":010300EF0001B5FF");
modRecList.Add("01 03 02 00 00 B8 44 ");
titleList.Add("GET_CH7_LOW_ALARM_DOCH");
rtuList.Add("01 03 01 4F 00 01 B4 21");
asciiList.Add(":0103014F0001B421");
modRecList.Add("01 03 02 00 00 B8 44 ");
titleList.Add("GET_WDT_TIMER");
rtuList.Add("01 03 01 E8 00 01 05 C2");
asciiList.Add(":010301E8000105C2");
modRecList.Add("01 03 02 00 00 B8 44 ");
titleList.Add("GET_WDT_ENABLE");
rtuList.Add("01 01 01 04 00 01 BD F7");
asciiList.Add(":010101040001BDF7");
modRecList.Add("01 01 01 00 51 88 ");
titleList.Add("GET_WDT_OVERWRITE");
rtuList.Add("01 01 01 03 00 01 0C 36");
asciiList.Add(":0101010300010C36");
modRecList.Add("01 01 01 00 51 88 ");
titleList.Add("GET_TEMPERATURE_DISPLAY_FORMAT");
rtuList.Add("01 01 01 0A 00 01 DC 34");
asciiList.Add(":0101010A0001DC34");
modRecList.Add("01 01 01 00 51 88 ");
titleList.Add("GET_USER_DEFINED_TYPE_A");
rtuList.Add("01 03 03 00 00 02 C4 4F");
asciiList.Add(":010303000002C44F");
modRecList.Add("01 03 04 FF FF FF FF FB A7 ");
titleList.Add("GET_USER_DEFINED_TYPE_B");
rtuList.Add("01 03 03 20 00 02 C5 85");
asciiList.Add(":010303200002C585");
modRecList.Add("01 03 04 FF FF FF FF FB A7 ");
titleList.Add("GET_USER_DEFINED_TYPE_C");
rtuList.Add("01 03 03 40 00 02 C5 9B");
asciiList.Add(":010303400002C59B");
modRecList.Add("01 03 04 FF FF FF FF FB A7 ");
titleList.Add("READ_CH0_AI");
rtuList.Add("01 04 00 00 00 01 31 CA");
asciiList.Add(":01040000000131CA");
modRecList.Add("");
titleList.Add("READ_CH1_AI");
rtuList.Add("01 04 00 01 00 01 60 0A");
asciiList.Add(":010400010001600A");
modRecList.Add("");
titleList.Add("READ_CH2_AI");
rtuList.Add("01 04 00 02 00 01 90 0A");
asciiList.Add(":010400020001900A");
modRecList.Add("");
titleList.Add("READ_CH3_AI");
rtuList.Add("01 04 00 03 00 01 C1 CA");
asciiList.Add(":010400030001C1CA");
modRecList.Add("");
titleList.Add("READ_CH4_AI");
rtuList.Add("01 04 00 04 00 01 70 0B");
asciiList.Add(":010400040001700B");
modRecList.Add("");
titleList.Add("READ_CH5_AI");
rtuList.Add("01 04 00 05 00 01 21 CB");
asciiList.Add(":01040005000121CB");
modRecList.Add("");
titleList.Add("READ_CH6_AI");
rtuList.Add("01 04 00 06 00 01 D1 CB");
asciiList.Add(":010400060001D1CB");
modRecList.Add("");
titleList.Add("READ_CH7_AI");
rtuList.Add("01 04 00 07 00 01 80 0B");
asciiList.Add(":010400070001800B");
modRecList.Add("");
titleList.Add("READ_WDT_STATUS");
rtuList.Add("01 01 01 0D 00 01 6D F5");
asciiList.Add(":0101010D00016DF5");
modRecList.Add("");
titleList.Add("READ_MULTI_AI_DIO_STATUS");
rtuList.Add("01 01 00 00 00 06 BC 08");
asciiList.Add(":010100000006BC08");
modRecList.Add("");
titleList.Add("READ_CH0_ALARM_DO_ON");
rtuList.Add("01 03 02 C0 00 01 85 8E");
asciiList.Add(":010302C00001858E");
modRecList.Add("");
titleList.Add("READ_CH1_ALARM_DO_ON");
rtuList.Add("01 03 02 C1 00 01 D4 4E");
asciiList.Add(":010302C10001D44E");
modRecList.Add("");
titleList.Add("READ_CH2_ALARM_DO_ON");
rtuList.Add("01 03 02 C2 00 01 24 4E");
asciiList.Add(":010302C20001244E");
modRecList.Add("");
titleList.Add("READ_CH3_ALARM_DO_ON");
rtuList.Add("01 03 02 C3 00 01 75 8E");
asciiList.Add(":010302C30001758E");
modRecList.Add("");
titleList.Add("READ_CH4_ALARM_DO_ON");
rtuList.Add("01 03 02 C4 00 01 C4 4F");
asciiList.Add(":010302C40001C44F");
modRecList.Add("");
titleList.Add("READ_CH5_ALARM_DO_ON");
rtuList.Add("01 03 02 C5 00 01 95 8F");
asciiList.Add(":010302C50001958F");
modRecList.Add("");
titleList.Add("SET_TEMPERATURE_DISPLAY_FORMAT");
rtuList.Add("01 05 01 0A 00 00 EC 34");
asciiList.Add(":0105010A0000EC34");
modRecList.Add("01 05 01 0A 00 00 EC 34 ");
break;
#endregion 7005
