#region DDC6026
case "DDC6026":
titleList.Add("GET_MODULE_NAME");
rtuList.Add("01 46 00 12 60");
asciiList.Add(":0146001260");
modRecList.Add("01 46 00 44 44 60 26 F8 59 ");
titleList.Add("GET_MODULE_FIRMWARE");
rtuList.Add("01 46 20 13 B8");
asciiList.Add(":01462013B8");
modRecList.Add("01 46 20 A1 01 00 D3 B7 ");
titleList.Add("GET_COMMUNICATE_PARAMETER");
rtuList.Add("01 46 05 00 E3 5D");
asciiList.Add(":01460500E35D");
modRecList.Add("01 46 05 00 0A 00 00 00 01 00 00 24 43 ");
titleList.Add("GET_MODULE_ADDRESS");
rtuList.Add("01 03 01 E4 00 01 C5 C1");
asciiList.Add(":010301E40001C5C1");
modRecList.Add("01 03 02 00 01 79 84 ");
titleList.Add("GET_MODBUS_MISC");
rtuList.Add("01 46 29 D3 BE");
asciiList.Add(":014629D3BE");
modRecList.Add("01 46 29 00 FF 9D ");
titleList.Add("GET_MODBUS_DATAFORMAT");
rtuList.Add("01 01 01 0C 00 01 3C 35");
asciiList.Add(":0101010C00013C35");
modRecList.Add("01 01 01 01 90 48 ");
titleList.Add("GET_RESPONSE_DELAY_TIME");
rtuList.Add("01 46 35 D2 77");
asciiList.Add(":014635D277");
modRecList.Add("01 46 35 00 F7 5D ");
titleList.Add("GET_WDT_TIMER");
rtuList.Add("01 03 01 E8 00 01 05 C2");
asciiList.Add(":010301E8000105C2");
modRecList.Add("01 03 02 00 FA 38 07 ");
titleList.Add("GET_WDT_ENABLE");
rtuList.Add("01 01 01 04 00 01 BD F7");
asciiList.Add(":010101040001BDF7");
modRecList.Add("01 01 01 00 51 88 ");
titleList.Add("GET_WDT_OVERWRITE");
rtuList.Add("01 01 01 03 00 01 0C 36");
asciiList.Add(":0101010300010C36");
modRecList.Add("01 01 01 00 51 88 ");
titleList.Add("READ_CH0_LAST_AO");
rtuList.Add("01 03 00 20 00 01 85 C0");
asciiList.Add(":01030020000185C0");
modRecList.Add("01 03 02 0F A0 BD CC ");
titleList.Add("READ_CH1_LAST_AO");
rtuList.Add("01 03 00 21 00 01 D4 00");
asciiList.Add(":010300210001D400");
modRecList.Add("01 03 02 00 00 B8 44 ");
titleList.Add("READ_CH2_LAST_AO");
rtuList.Add("01 03 00 22 00 01 24 00");
asciiList.Add(":0103002200012400");
modRecList.Add("01 03 02 00 00 B8 44 ");
titleList.Add("READ_CH3_LAST_AO");
rtuList.Add("01 03 00 23 00 01 75 C0");
asciiList.Add(":01030023000175C0");
modRecList.Add("01 03 02 00 00 B8 44 ");
titleList.Add("READ_CH4_LAST_AO");
rtuList.Add("01 03 00 24 00 01 C4 01");
asciiList.Add(":010300240001C401");
modRecList.Add("01 03 02 00 00 B8 44 ");
titleList.Add("READ_CH5_LAST_AO");
rtuList.Add("01 03 00 25 00 01 95 C1");
asciiList.Add(":01030025000195C1");
modRecList.Add("01 03 02 00 00 B8 44 ");
titleList.Add("READ_CH6_LAST_AO");
rtuList.Add("01 03 00 26 00 01 65 C1");
asciiList.Add(":01030026000165C1");
modRecList.Add("01 03 02 00 00 B8 44 ");
titleList.Add("READ_CH7_LAST_AO");
rtuList.Add("01 03 00 27 00 01 34 01");
asciiList.Add(":0103002700013401");
modRecList.Add("01 03 02 00 00 B8 44 ");
titleList.Add("READ_CH8_LAST_AO");
rtuList.Add("01 03 00 28 00 01 04 02");
asciiList.Add(":0103002800010402");
modRecList.Add("01 03 02 00 00 B8 44 ");
titleList.Add("READ_CH9_LAST_AO");
rtuList.Add("01 03 00 29 00 01 55 C2");
asciiList.Add(":01030029000155C2");
modRecList.Add("01 03 02 00 00 B8 44 ");
titleList.Add("READ_CH10_LAST_AO");
rtuList.Add("01 03 00 2A 00 01 A5 C2");
asciiList.Add(":0103002A0001A5C2");
modRecList.Add("01 03 02 00 00 B8 44 ");
titleList.Add("READ_CH11_LAST_AO");
rtuList.Add("01 03 00 2B 00 01 F4 02");
asciiList.Add(":0103002B0001F402");
modRecList.Add("01 03 02 00 00 B8 44 ");
titleList.Add("READ_CH12_LAST_AO");
rtuList.Add("01 03 00 2C 00 01 45 C3");
asciiList.Add(":0103002C000145C3");
modRecList.Add("01 03 02 00 00 B8 44 ");
titleList.Add("READ_CH13_LAST_AO");
rtuList.Add("01 03 00 2D 00 01 14 03");
asciiList.Add(":0103002D00011403");
modRecList.Add("01 03 02 00 00 B8 44 ");
titleList.Add("READ_CH14_LAST_AO");
rtuList.Add("01 03 00 2E 00 01 E4 03");
asciiList.Add(":0103002E0001E403");
modRecList.Add("01 03 02 00 00 B8 44 ");
titleList.Add("READ_CH15_LAST_AO");
rtuList.Add("01 03 00 2F 00 01 B5 C3");
asciiList.Add(":0103002F0001B5C3");
modRecList.Add("01 03 02 00 00 B8 44 ");
titleList.Add("GET_CHANNEL_ENABLE_STATUS");
rtuList.Add("01 46 25 D3 BB");
asciiList.Add(":014625D3BB");
modRecList.Add("01 46 25 FF FF 1C F3 ");
titleList.Add("GET_CH0_INPUT_RANGE");
rtuList.Add("01 03 01 00 00 01 85 F6");
asciiList.Add(":01030100000185F6");
modRecList.Add("01 03 02 00 2A 39 9B ");
titleList.Add("GET_CH0_TEMPERATURE_OFFSET");
rtuList.Add("01 03 01 C0 00 01 85 CA");
asciiList.Add(":010301C0000185CA");
modRecList.Add("01 03 02 00 03 F8 45 ");
titleList.Add("GET_CH0_AO_TYPE_CODE");
rtuList.Add("01 03 01 A0 00 01 85 D4");
asciiList.Add(":010301A0000185D4");
modRecList.Add("01 03 02 00 01 79 84 ");
titleList.Add("GET_CH0_AO_SLEW_RATE");
rtuList.Add("01 03 01 20 00 01 84 3C");
asciiList.Add(":010301200001843C");
modRecList.Add("01 03 02 00 00 B8 44 ");
titleList.Add("GET_CH1_INPUT_RANGE");
rtuList.Add("01 03 01 01 00 01 D4 36");
asciiList.Add(":010301010001D436");
modRecList.Add("01 03 02 00 2A 39 9B ");
titleList.Add("GET_CH1_TEMPERATURE_OFFSET");
rtuList.Add("01 03 01 C1 00 01 D4 0A");
asciiList.Add(":010301C10001D40A");
modRecList.Add("01 03 02 00 00 B8 44 ");
titleList.Add("GET_CH1_AO_TYPE_CODE");
rtuList.Add("01 03 01 A1 00 01 D4 14");
asciiList.Add(":010301A10001D414");
modRecList.Add("01 03 02 00 00 B8 44 ");
titleList.Add("GET_CH1_AO_SLEW_RATE");
rtuList.Add("01 03 01 21 00 01 D5 FC");
asciiList.Add(":010301210001D5FC");
modRecList.Add("01 03 02 00 00 B8 44 ");
titleList.Add("GET_CH2_INPUT_RANGE");
rtuList.Add("01 03 01 02 00 01 24 36");
asciiList.Add(":0103010200012436");
modRecList.Add("01 03 02 00 2A 39 9B ");
titleList.Add("GET_CH2_TEMPERATURE_OFFSET");
rtuList.Add("01 03 01 C2 00 01 24 0A");
asciiList.Add(":010301C20001240A");
modRecList.Add("01 03 02 00 01 79 84 ");
titleList.Add("GET_CH2_AO_TYPE_CODE");
rtuList.Add("01 03 01 A2 00 01 24 14");
asciiList.Add(":010301A200012414");
modRecList.Add("01 03 02 00 02 39 85 ");
titleList.Add("GET_CH2_AO_SLEW_RATE");
rtuList.Add("01 03 01 22 00 01 25 FC");
asciiList.Add(":01030122000125FC");
modRecList.Add("01 03 02 00 00 B8 44 ");
titleList.Add("GET_CH3_INPUT_RANGE");
rtuList.Add("01 03 01 03 00 01 75 F6");
asciiList.Add(":01030103000175F6");
modRecList.Add("01 03 02 00 2A 39 9B ");
titleList.Add("GET_CH3_TEMPERATURE_OFFSET");
rtuList.Add("01 03 01 C3 00 01 75 CA");
asciiList.Add(":010301C3000175CA");
modRecList.Add("01 03 02 00 01 79 84 ");
titleList.Add("GET_CH3_AO_TYPE_CODE");
rtuList.Add("01 03 01 A3 00 01 75 D4");
asciiList.Add(":010301A3000175D4");
modRecList.Add("01 03 02 00 02 39 85 ");
titleList.Add("GET_CH3_AO_SLEW_RATE");
rtuList.Add("01 03 01 23 00 01 74 3C");
asciiList.Add(":010301230001743C");
modRecList.Add("01 03 02 00 01 79 84 ");
titleList.Add("GET_CH4_INPUT_RANGE");
rtuList.Add("01 03 01 04 00 01 C4 37");
asciiList.Add(":010301040001C437");
modRecList.Add("01 03 02 00 2A 39 9B ");
titleList.Add("GET_CH4_TEMPERATURE_OFFSET");
rtuList.Add("01 03 01 C4 00 01 C4 0B");
asciiList.Add(":010301C40001C40B");
modRecList.Add("01 03 02 00 01 79 84 ");
titleList.Add("GET_CH4_AO_TYPE_CODE");
rtuList.Add("01 03 01 A4 00 01 C4 15");
asciiList.Add(":010301A40001C415");
modRecList.Add("01 03 02 00 02 39 85 ");
titleList.Add("GET_CH4_AO_SLEW_RATE");
rtuList.Add("01 03 01 24 00 01 C5 FD");
asciiList.Add(":010301240001C5FD");
modRecList.Add("01 03 02 00 01 79 84 ");
titleList.Add("GET_CH5_INPUT_RANGE");
rtuList.Add("01 03 01 05 00 01 95 F7");
asciiList.Add(":01030105000195F7");
modRecList.Add("01 03 02 00 2A 39 9B ");
titleList.Add("GET_CH5_TEMPERATURE_OFFSET");
rtuList.Add("01 03 01 C5 00 01 95 CB");
asciiList.Add(":010301C5000195CB");
modRecList.Add("01 03 02 00 01 79 84 ");
titleList.Add("GET_CH5_AO_TYPE_CODE");
rtuList.Add("01 03 01 A5 00 01 95 D5");
asciiList.Add(":010301A5000195D5");
modRecList.Add("01 03 02 00 02 39 85 ");
titleList.Add("GET_CH5_AO_SLEW_RATE");
rtuList.Add("01 03 01 25 00 01 94 3D");
asciiList.Add(":010301250001943D");
modRecList.Add("01 03 02 00 01 79 84 ");
titleList.Add("GET_CH6_INPUT_RANGE");
rtuList.Add("01 03 01 06 00 01 65 F7");
asciiList.Add(":01030106000165F7");
modRecList.Add("01 03 02 00 2A 39 9B ");
titleList.Add("GET_CH6_TEMPERATURE_OFFSET");
rtuList.Add("01 03 01 C6 00 01 65 CB");
asciiList.Add(":010301C6000165CB");
modRecList.Add("01 03 02 00 02 39 85 ");
titleList.Add("GET_CH6_AO_TYPE_CODE");
rtuList.Add("01 03 01 A6 00 01 65 D5");
asciiList.Add(":010301A6000165D5");
modRecList.Add("01 03 02 00 02 39 85 ");
titleList.Add("GET_CH6_AO_SLEW_RATE");
rtuList.Add("01 03 01 26 00 01 64 3D");
asciiList.Add(":010301260001643D");
modRecList.Add("01 03 02 00 01 79 84 ");
titleList.Add("GET_CH7_INPUT_RANGE");
rtuList.Add("01 03 01 07 00 01 34 37");
asciiList.Add(":0103010700013437");
modRecList.Add("01 03 02 00 2A 39 9B ");
titleList.Add("GET_CH7_TEMPERATURE_OFFSET");
rtuList.Add("01 03 01 C7 00 01 34 0B");
asciiList.Add(":010301C70001340B");
modRecList.Add("01 03 02 00 01 79 84 ");
titleList.Add("GET_CH7_AO_TYPE_CODE");
rtuList.Add("01 03 01 A7 00 01 34 15");
asciiList.Add(":010301A700013415");
modRecList.Add("01 03 02 00 02 39 85 ");
titleList.Add("GET_CH7_AO_SLEW_RATE");
rtuList.Add("01 03 01 27 00 01 35 FD");
asciiList.Add(":01030127000135FD");
modRecList.Add("01 03 02 00 01 79 84 ");
titleList.Add("GET_CH8_INPUT_RANGE");
rtuList.Add("01 03 01 08 00 01 04 34");
asciiList.Add(":0103010800010434");
modRecList.Add("01 03 02 00 2A 39 9B ");
titleList.Add("GET_CH8_TEMPERATURE_OFFSET");
rtuList.Add("01 03 01 C8 00 01 04 08");
asciiList.Add(":010301C800010408");
modRecList.Add("01 03 02 00 02 39 85 ");
titleList.Add("GET_CH8_AO_TYPE_CODE");
rtuList.Add("01 03 01 A8 00 01 04 16");
asciiList.Add(":010301A800010416");
modRecList.Add("01 03 02 00 02 39 85 ");
titleList.Add("GET_CH8_AO_SLEW_RATE");
rtuList.Add("01 03 01 28 00 01 05 FE");
asciiList.Add(":01030128000105FE");
modRecList.Add("01 03 02 00 01 79 84 ");
titleList.Add("GET_CH9_INPUT_RANGE");
rtuList.Add("01 03 01 09 00 01 55 F4");
asciiList.Add(":01030109000155F4");
modRecList.Add("01 03 02 00 2A 39 9B ");
titleList.Add("GET_CH9_TEMPERATURE_OFFSET");
rtuList.Add("01 03 01 C9 00 01 55 C8");
asciiList.Add(":010301C9000155C8");
modRecList.Add("01 03 02 00 02 39 85 ");
titleList.Add("GET_CH9_AO_TYPE_CODE");
rtuList.Add("01 03 01 A9 00 01 55 D6");
asciiList.Add(":010301A9000155D6");
modRecList.Add("01 03 02 00 02 39 85 ");
titleList.Add("GET_CH9_AO_SLEW_RATE");
rtuList.Add("01 03 01 29 00 01 54 3E");
asciiList.Add(":010301290001543E");
modRecList.Add("01 03 02 00 01 79 84 ");
titleList.Add("GET_CH10_INPUT_RANGE");
rtuList.Add("01 03 01 0A 00 01 A5 F4");
asciiList.Add(":0103010A0001A5F4");
modRecList.Add("01 03 02 00 2A 39 9B ");
titleList.Add("GET_CH10_TEMPERATURE_OFFSET");
rtuList.Add("01 03 01 CA 00 01 A5 C8");
asciiList.Add(":010301CA0001A5C8");
modRecList.Add("01 03 02 00 02 39 85 ");
titleList.Add("GET_CH10_AO_TYPE_CODE");
rtuList.Add("01 03 01 AA 00 01 A5 D6");
asciiList.Add(":010301AA0001A5D6");
modRecList.Add("01 03 02 00 02 39 85 ");
titleList.Add("GET_CH10_AO_SLEW_RATE");
rtuList.Add("01 03 01 2A 00 01 A4 3E");
asciiList.Add(":0103012A0001A43E");
modRecList.Add("01 03 02 00 01 79 84 ");
titleList.Add("GET_CH11_INPUT_RANGE");
rtuList.Add("01 03 01 0B 00 01 F4 34");
asciiList.Add(":0103010B0001F434");
modRecList.Add("01 03 02 00 2A 39 9B ");
titleList.Add("GET_CH11_TEMPERATURE_OFFSET");
rtuList.Add("01 03 01 CB 00 01 F4 08");
asciiList.Add(":010301CB0001F408");
modRecList.Add("01 03 02 00 02 39 85 ");
titleList.Add("GET_CH11_AO_TYPE_CODE");
rtuList.Add("01 03 01 AB 00 01 F4 16");
asciiList.Add(":010301AB0001F416");
modRecList.Add("01 03 02 00 02 39 85 ");
titleList.Add("GET_CH11_AO_SLEW_RATE");
rtuList.Add("01 03 01 2B 00 01 F5 FE");
asciiList.Add(":0103012B0001F5FE");
modRecList.Add("01 03 02 00 01 79 84 ");
titleList.Add("GET_CH12_INPUT_RANGE");
rtuList.Add("01 03 01 0C 00 01 45 F5");
asciiList.Add(":0103010C000145F5");
modRecList.Add("01 03 02 00 2A 39 9B ");
titleList.Add("GET_CH12_TEMPERATURE_OFFSET");
rtuList.Add("01 03 01 CC 00 01 45 C9");
asciiList.Add(":010301CC000145C9");
modRecList.Add("01 03 02 00 02 39 85 ");
titleList.Add("GET_CH12_AO_TYPE_CODE");
rtuList.Add("01 03 01 AC 00 01 45 D7");
asciiList.Add(":010301AC000145D7");
modRecList.Add("01 03 02 00 02 39 85 ");
titleList.Add("GET_CH12_AO_SLEW_RATE");
rtuList.Add("01 03 01 2C 00 01 44 3F");
asciiList.Add(":0103012C0001443F");
modRecList.Add("01 03 02 00 01 79 84 ");
titleList.Add("GET_CH13_INPUT_RANGE");
rtuList.Add("01 03 01 0D 00 01 14 35");
asciiList.Add(":0103010D00011435");
modRecList.Add("01 03 02 00 2A 39 9B ");
titleList.Add("GET_CH13_TEMPERATURE_OFFSET");
rtuList.Add("01 03 01 CD 00 01 14 09");
asciiList.Add(":010301CD00011409");
modRecList.Add("01 03 02 00 02 39 85 ");
titleList.Add("GET_CH13_AO_TYPE_CODE");
rtuList.Add("01 03 01 AD 00 01 14 17");
asciiList.Add(":010301AD00011417");
modRecList.Add("01 03 02 00 02 39 85 ");
titleList.Add("GET_CH13_AO_SLEW_RATE");
rtuList.Add("01 03 01 2D 00 01 15 FF");
asciiList.Add(":0103012D000115FF");
modRecList.Add("01 03 02 00 01 79 84 ");
titleList.Add("GET_CH14_INPUT_RANGE");
rtuList.Add("01 03 01 0E 00 01 E4 35");
asciiList.Add(":0103010E0001E435");
modRecList.Add("01 03 02 00 2A 39 9B ");
titleList.Add("GET_CH14_TEMPERATURE_OFFSET");
rtuList.Add("01 03 01 CE 00 01 E4 09");
asciiList.Add(":010301CE0001E409");
modRecList.Add("01 03 02 00 03 F8 45 ");
titleList.Add("GET_CH14_AO_TYPE_CODE");
rtuList.Add("01 03 01 AE 00 01 E4 17");
asciiList.Add(":010301AE0001E417");
modRecList.Add("01 03 02 00 02 39 85 ");
titleList.Add("GET_CH14_AO_SLEW_RATE");
rtuList.Add("01 03 01 2E 00 01 E5 FF");
asciiList.Add(":0103012E0001E5FF");
modRecList.Add("01 03 02 00 01 79 84 ");
titleList.Add("GET_CH15_INPUT_RANGE");
rtuList.Add("01 03 01 0F 00 01 B5 F5");
asciiList.Add(":0103010F0001B5F5");
modRecList.Add("01 03 02 00 2A 39 9B ");
titleList.Add("GET_CH15_TEMPERATURE_OFFSET");
rtuList.Add("01 03 01 CF 00 01 B5 C9");
asciiList.Add(":010301CF0001B5C9");
modRecList.Add("01 03 02 00 03 F8 45 ");
titleList.Add("GET_CH15_AO_TYPE_CODE");
rtuList.Add("01 03 01 AF 00 01 B5 D7");
asciiList.Add(":010301AF0001B5D7");
modRecList.Add("01 03 02 00 02 39 85 ");
titleList.Add("GET_CH15_AO_SLEW_RATE");
rtuList.Add("01 03 01 2F 00 01 B4 3F");
asciiList.Add(":0103012F0001B43F");
modRecList.Add("01 03 02 00 01 79 84 ");
titleList.Add("READ_CH0_DI_COUNTER");
rtuList.Add("01 04 00 80 00 02 70 23");
asciiList.Add(":0104008000027023");
modRecList.Add("01 04 04 00 00 00 00 FB 84 ");
titleList.Add("READ_CH1_DI_COUNTER");
rtuList.Add("01 04 00 82 00 02 D1 E3");
asciiList.Add(":010400820002D1E3");
modRecList.Add("01 04 04 00 00 00 00 FB 84 ");
titleList.Add("READ_CH2_DI_COUNTER");
rtuList.Add("01 04 00 84 00 02 31 E2");
asciiList.Add(":01040084000231E2");
modRecList.Add("01 04 04 00 00 00 00 FB 84 ");
titleList.Add("READ_CH3_DI_COUNTER");
rtuList.Add("01 04 00 86 00 02 90 22");
asciiList.Add(":0104008600029022");
modRecList.Add("01 04 04 00 00 00 00 FB 84 ");
titleList.Add("READ_CH4_DI_COUNTER");
rtuList.Add("01 04 00 88 00 02 F1 E1");
asciiList.Add(":010400880002F1E1");
modRecList.Add("01 04 04 00 00 00 00 FB 84 ");
titleList.Add("READ_CH5_DI_COUNTER");
rtuList.Add("01 04 00 8A 00 02 50 21");
asciiList.Add(":0104008A00025021");
modRecList.Add("01 04 04 00 00 00 00 FB 84 ");
titleList.Add("READ_CH6_DI_COUNTER");
rtuList.Add("01 04 00 8C 00 02 B0 20");
asciiList.Add(":0104008C0002B020");
modRecList.Add("01 04 04 00 00 00 00 FB 84 ");
titleList.Add("READ_CH7_DI_COUNTER");
rtuList.Add("01 04 00 8E 00 02 11 E0");
asciiList.Add(":0104008E000211E0");
modRecList.Add("01 04 04 00 00 00 00 FB 84 ");
titleList.Add("READ_CH8_DI_COUNTER");
rtuList.Add("01 04 00 90 00 02 71 E6");
asciiList.Add(":01040090000271E6");
modRecList.Add("01 04 04 00 00 00 00 FB 84 ");
titleList.Add("READ_CH9_DI_COUNTER");
rtuList.Add("01 04 00 92 00 02 D0 26");
asciiList.Add(":010400920002D026");
modRecList.Add("01 04 04 00 00 00 00 FB 84 ");
titleList.Add("READ_CH10_DI_COUNTER");
rtuList.Add("01 04 00 94 00 02 30 27");
asciiList.Add(":0104009400023027");
modRecList.Add("01 04 04 00 00 00 00 FB 84 ");
titleList.Add("READ_CH11_DI_COUNTER");
rtuList.Add("01 04 00 96 00 02 91 E7");
asciiList.Add(":01040096000291E7");
modRecList.Add("01 04 04 00 00 00 00 FB 84 ");
titleList.Add("READ_CH12_DI_COUNTER");
rtuList.Add("01 04 00 98 00 02 F0 24");
asciiList.Add(":010400980002F024");
modRecList.Add("01 04 04 00 00 00 00 FB 84 ");
titleList.Add("READ_CH13_DI_COUNTER");
rtuList.Add("01 04 00 9A 00 02 51 E4");
asciiList.Add(":0104009A000251E4");
modRecList.Add("01 04 04 00 00 00 00 FB 84 ");
titleList.Add("READ_CH14_DI_COUNTER");
rtuList.Add("01 04 00 9C 00 02 B1 E5");
asciiList.Add(":0104009C0002B1E5");
modRecList.Add("01 04 04 00 00 00 00 FB 84 ");
titleList.Add("READ_CH15_DI_COUNTER");
rtuList.Add("01 04 00 9E 00 02 10 25");
asciiList.Add(":0104009E00021025");
modRecList.Add("01 04 04 00 00 00 00 FB 84 ");
titleList.Add("READ_DI_HIGH_LATCH");
rtuList.Add("01 01 00 40 00 10 3C 12");
asciiList.Add(":0101004000103C12");
modRecList.Add("01 01 02 00 00 B9 FC ");
titleList.Add("READ_DI_LOW_LATCH");
rtuList.Add("01 01 00 60 00 10 3D D8");
asciiList.Add(":0101006000103DD8");
modRecList.Add("01 01 02 00 00 B9 FC ");
titleList.Add("READ_DI");
rtuList.Add("01 01 00 20 00 10 3C 0C");
asciiList.Add(":0101002000103C0C");
modRecList.Add("01 01 02 00 00 B9 FC ");
titleList.Add("READ_CH0_AI");
rtuList.Add("01 04 00 00 00 01 31 CA");
asciiList.Add(":01040000000131CA");
modRecList.Add("01 04 02 7F FF D9 40 ");
titleList.Add("READ_CH1_AI");
rtuList.Add("01 04 00 01 00 01 60 0A");
asciiList.Add(":010400010001600A");
modRecList.Add("01 04 02 7F FF D9 40 ");
titleList.Add("READ_CH2_AI");
rtuList.Add("01 04 00 02 00 01 90 0A");
asciiList.Add(":010400020001900A");
modRecList.Add("01 04 02 7F FF D9 40 ");
titleList.Add("READ_CH3_AI");
rtuList.Add("01 04 00 03 00 01 C1 CA");
asciiList.Add(":010400030001C1CA");
modRecList.Add("01 04 02 7F FF D9 40 ");
titleList.Add("READ_CH4_AI");
rtuList.Add("01 04 00 04 00 01 70 0B");
asciiList.Add(":010400040001700B");
modRecList.Add("01 04 02 7F FF D9 40 ");
titleList.Add("READ_CH5_AI");
rtuList.Add("01 04 00 05 00 01 21 CB");
asciiList.Add(":01040005000121CB");
modRecList.Add("01 04 02 7F FF D9 40 ");
titleList.Add("READ_CH6_AI");
rtuList.Add("01 04 00 06 00 01 D1 CB");
asciiList.Add(":010400060001D1CB");
modRecList.Add("01 04 02 7F FF D9 40 ");
titleList.Add("READ_CH7_AI");
rtuList.Add("01 04 00 07 00 01 80 0B");
asciiList.Add(":010400070001800B");
modRecList.Add("01 04 02 7F FF D9 40 ");
titleList.Add("READ_CH8_AI");
rtuList.Add("01 04 00 08 00 01 B0 08");
asciiList.Add(":010400080001B008");
modRecList.Add("01 04 02 7F FF D9 40 ");
titleList.Add("READ_CH9_AI");
rtuList.Add("01 04 00 09 00 01 E1 C8");
asciiList.Add(":010400090001E1C8");
modRecList.Add("01 04 02 7F FF D9 40 ");
titleList.Add("READ_CH10_AI");
rtuList.Add("01 04 00 0A 00 01 11 C8");
asciiList.Add(":0104000A000111C8");
modRecList.Add("01 04 02 7F FF D9 40 ");
titleList.Add("READ_CH11_AI");
rtuList.Add("01 04 00 0B 00 01 40 08");
asciiList.Add(":0104000B00014008");
modRecList.Add("01 04 02 7F FF D9 40 ");
titleList.Add("READ_CH12_AI");
rtuList.Add("01 04 00 0C 00 01 F1 C9");
asciiList.Add(":0104000C0001F1C9");
modRecList.Add("01 04 02 7F FF D9 40 ");
titleList.Add("READ_CH13_AI");
rtuList.Add("01 04 00 0D 00 01 A0 09");
asciiList.Add(":0104000D0001A009");
modRecList.Add("01 04 02 7F FF D9 40 ");
titleList.Add("READ_CH14_AI");
rtuList.Add("01 04 00 0E 00 01 50 09");
asciiList.Add(":0104000E00015009");
modRecList.Add("01 04 02 7F FF D9 40 ");
titleList.Add("READ_CH15_AI");
rtuList.Add("01 04 00 0F 00 01 01 C9");
asciiList.Add(":0104000F000101C9");
modRecList.Add("01 04 02 7F FF D9 40 ");
titleList.Add("READ_CH0_AO");
rtuList.Add("01 03 00 40 00 01 85 DE");
asciiList.Add(":01030040000185DE");
modRecList.Add("01 03 02 0F A0 BD CC ");
titleList.Add("READ_CH1_AO");
rtuList.Add("01 03 00 41 00 01 D4 1E");
asciiList.Add(":010300410001D41E");
modRecList.Add("01 03 02 00 00 B8 44 ");
titleList.Add("READ_CH2_AO");
rtuList.Add("01 03 00 42 00 01 24 1E");
asciiList.Add(":010300420001241E");
modRecList.Add("01 03 02 00 00 B8 44 ");
titleList.Add("READ_CH3_AO");
rtuList.Add("01 03 00 43 00 01 75 DE");
asciiList.Add(":01030043000175DE");
modRecList.Add("01 03 02 00 00 B8 44 ");
titleList.Add("READ_CH4_AO");
rtuList.Add("01 03 00 44 00 01 C4 1F");
asciiList.Add(":010300440001C41F");
modRecList.Add("01 03 02 00 00 B8 44 ");
titleList.Add("READ_CH5_AO");
rtuList.Add("01 03 00 45 00 01 95 DF");
asciiList.Add(":01030045000195DF");
modRecList.Add("01 03 02 00 00 B8 44 ");
titleList.Add("READ_CH6_AO");
rtuList.Add("01 03 00 46 00 01 65 DF");
asciiList.Add(":01030046000165DF");
modRecList.Add("01 03 02 00 00 B8 44 ");
titleList.Add("READ_CH7_AO");
rtuList.Add("01 03 00 47 00 01 34 1F");
asciiList.Add(":010300470001341F");
modRecList.Add("01 03 02 00 00 B8 44 ");
titleList.Add("READ_CH8_AO");
rtuList.Add("01 03 00 48 00 01 04 1C");
asciiList.Add(":010300480001041C");
modRecList.Add("01 03 02 00 00 B8 44 ");
titleList.Add("READ_CH9_AO");
rtuList.Add("01 03 00 49 00 01 55 DC");
asciiList.Add(":01030049000155DC");
modRecList.Add("01 03 02 00 00 B8 44 ");
titleList.Add("READ_CH10_AO");
rtuList.Add("01 03 00 4A 00 01 A5 DC");
asciiList.Add(":0103004A0001A5DC");
modRecList.Add("01 03 02 00 00 B8 44 ");
titleList.Add("READ_CH11_AO");
rtuList.Add("01 03 00 4B 00 01 F4 1C");
asciiList.Add(":0103004B0001F41C");
modRecList.Add("01 03 02 00 00 B8 44 ");
titleList.Add("READ_CH12_AO");
rtuList.Add("01 03 00 4C 00 01 45 DD");
asciiList.Add(":0103004C000145DD");
modRecList.Add("01 03 02 00 00 B8 44 ");
titleList.Add("READ_CH13_AO");
rtuList.Add("01 03 00 4D 00 01 14 1D");
asciiList.Add(":0103004D0001141D");
modRecList.Add("01 03 02 00 00 B8 44 ");
titleList.Add("READ_CH14_AO");
rtuList.Add("01 03 00 4E 00 01 E4 1D");
asciiList.Add(":0103004E0001E41D");
modRecList.Add("01 03 02 00 00 B8 44 ");
titleList.Add("READ_CH15_AO");
rtuList.Add("01 03 00 4F 00 01 B5 DD");
asciiList.Add(":0103004F0001B5DD");
modRecList.Add("01 03 02 00 00 B8 44 ");
break;
#endregion DDC6026
